time	V(vin)	V(vout)
0.000000000000000e+000	4.810715e+000	5.228660e-001
1.749432445808872e-007	4.842471e+000	5.228518e-001
3.498864891617743e-007	4.870890e+000	5.228376e-001
5.248297337426616e-007	4.895972e+000	5.228236e-001
6.997729783235487e-007	4.917716e+000	5.228096e-001
8.747162229044358e-007	4.936122e+000	5.227958e-001
1.049659467485323e-006	4.951191e+000	5.227820e-001
1.224602712066210e-006	4.962923e+000	5.227683e-001
1.362999428415934e-006	4.972356e+000	5.227576e-001
1.501396144765659e-006	4.978709e+000	5.227469e-001
1.639792861115384e-006	4.981980e+000	5.227362e-001
1.778189577465108e-006	4.982169e+000	5.227257e-001
1.916586293814833e-006	4.979278e+000	5.227152e-001
2.054983010164557e-006	4.973304e+000	5.227048e-001
2.193379726514282e-006	4.964250e+000	5.226944e-001
2.469539077789366e-006	4.943921e+000	5.226739e-001
2.745698429064451e-006	4.918100e+000	5.226536e-001
3.021857780339536e-006	4.886788e+000	5.226336e-001
3.298017131614621e-006	4.849986e+000	5.226138e-001
3.574176482889705e-006	4.807692e+000	5.225943e-001
3.850335834164791e-006	4.759907e+000	5.225750e-001
4.126495185439874e-006	4.706632e+000	5.225560e-001
4.284592219896557e-006	4.666476e+000	5.225452e-001
4.442689254353239e-006	4.623612e+000	5.225345e-001
4.600786288809921e-006	4.578040e+000	5.225239e-001
4.758883323266604e-006	4.529760e+000	5.225134e-001
4.916980357723285e-006	4.478771e+000	5.225029e-001
5.075077392179968e-006	4.425074e+000	5.224926e-001
5.233174426636650e-006	4.368668e+000	5.224823e-001
5.351687677868653e-006	4.326585e+000	5.224747e-001
5.470200929100656e-006	4.282737e+000	5.224672e-001
5.588714180332658e-006	4.237124e+000	5.224596e-001
5.707227431564661e-006	4.189747e+000	5.224521e-001
5.825740682796664e-006	4.140605e+000	5.224447e-001
5.944253934028667e-006	4.089699e+000	5.224372e-001
6.062767185260670e-006	4.037027e+000	5.224298e-001
6.679125885596972e-006	3.662703e+000	5.223924e-001
6.884505528522101e-006	3.538973e+000	5.223802e-001
7.089885171447231e-006	3.417743e+000	5.223681e-001
7.295264814372360e-006	3.299013e+000	5.223562e-001
7.500644457297489e-006	3.182783e+000	5.223444e-001
7.706024100222618e-006	3.069053e+000	5.223328e-001
7.911403743147748e-006	2.957823e+000	5.223213e-001
8.116783386072878e-006	2.849092e+000	5.223100e-001
9.011160540288053e-006	2.422879e+000	5.222624e-001
9.058599120606364e-006	2.382615e+000	5.222600e-001
9.150515462414159e-006	2.304598e+000	5.222552e-001
9.273723787509584e-006	2.199858e+000	5.222490e-001
9.396932112605010e-006	2.095255e+000	5.222427e-001
9.520140437700435e-006	1.990788e+000	5.222366e-001
9.643348762795860e-006	1.886459e+000	5.222304e-001
9.766557087891284e-006	1.782266e+000	5.222244e-001
9.889765412986710e-006	1.678210e+000	5.222183e-001
1.001297373808214e-005	1.574290e+000	5.222124e-001
1.003892121424635e-005	1.555717e+000	5.222111e-001
1.007821368435510e-005	1.527591e+000	5.222093e-001
1.016636266823229e-005	1.464494e+000	5.222051e-001
1.031925194573447e-005	1.355916e+000	5.221978e-001
1.047214122323666e-005	1.246801e+000	5.221907e-001
1.062503050073884e-005	1.137148e+000	5.221836e-001
1.077791977824102e-005	1.026958e+000	5.221767e-001
1.093080905574321e-005	9.162306e-001	5.221697e-001
1.108369833324539e-005	8.049661e-001	5.221629e-001
1.123658761074758e-005	6.931644e-001	5.221561e-001
1.148913567871889e-005	5.067697e-001	5.221452e-001
1.174168374669020e-005	3.203034e-001	5.221345e-001
1.199423181466151e-005	1.337656e-001	5.221240e-001
1.224677988263282e-005	-5.284373e-002	5.221138e-001
1.249932795060413e-005	-2.395246e-001	5.221037e-001
1.275187601857544e-005	-4.262770e-001	5.220939e-001
1.300442408654675e-005	-6.131009e-001	5.220843e-001
1.303574329483522e-005	-6.302252e-001	5.220831e-001
1.306706250312369e-005	-6.473494e-001	5.220820e-001
1.309838171141215e-005	-6.644737e-001	5.220808e-001
1.312970091970062e-005	-6.815979e-001	5.220797e-001
1.316102012798909e-005	-6.987222e-001	5.220785e-001
1.319233933627756e-005	-7.158464e-001	5.220773e-001
1.322365854456603e-005	-7.329707e-001	5.220762e-001
1.400694276379021e-005	-1.163519e+000	5.220485e-001
1.403932677177724e-005	-1.191839e+000	5.220474e-001
1.407171077976427e-005	-1.220160e+000	5.220463e-001
1.410409478775131e-005	-1.248481e+000	5.220453e-001
1.413647879573833e-005	-1.276801e+000	5.220442e-001
1.416886280372536e-005	-1.305122e+000	5.220431e-001
1.420124681171240e-005	-1.333443e+000	5.220420e-001
1.423363081969943e-005	-1.361763e+000	5.220410e-001
1.500954870575322e-005	-2.038244e+000	5.220163e-001
1.509253845730919e-005	-2.092749e+000	5.220139e-001
1.517552820886516e-005	-2.147253e+000	5.220114e-001
1.525851796042113e-005	-2.201758e+000	5.220090e-001
1.534150771197710e-005	-2.256263e+000	5.220066e-001
1.542449746353306e-005	-2.310767e+000	5.220042e-001
1.550748721508904e-005	-2.365272e+000	5.220018e-001
1.559047696664500e-005	-2.419776e+000	5.219994e-001
1.565533797541321e-005	-2.465963e+000	5.219976e-001
1.572019898418142e-005	-2.510514e+000	5.219958e-001
1.578505999294962e-005	-2.553430e+000	5.219941e-001
1.584992100171783e-005	-2.594711e+000	5.219923e-001
1.591478201048603e-005	-2.634356e+000	5.219905e-001
1.597964301925424e-005	-2.672367e+000	5.219887e-001
1.604450402802244e-005	-2.708742e+000	5.219870e-001
1.620265480206172e-005	-2.777552e+000	5.219828e-001
1.636080557610101e-005	-2.847779e+000	5.219788e-001
1.651895635014029e-005	-2.919425e+000	5.219748e-001
1.667710712417957e-005	-2.992490e+000	5.219709e-001
1.683525789821885e-005	-3.066973e+000	5.219671e-001
1.699340867225814e-005	-3.142875e+000	5.219634e-001
1.715155944629742e-005	-3.220195e+000	5.219598e-001
1.749072660168513e-005	-3.405610e+000	5.219524e-001
1.782989375707284e-005	-3.583965e+000	5.219453e-001
1.816906091246055e-005	-3.755260e+000	5.219387e-001
1.850822806784825e-005	-3.919495e+000	5.219325e-001
1.884739522323597e-005	-4.076670e+000	5.219268e-001
1.918656237862367e-005	-4.226784e+000	5.219214e-001
1.952572953401138e-005	-4.369838e+000	5.219165e-001
1.960853435388132e-005	-4.413123e+000	5.219154e-001
1.969133917375125e-005	-4.453188e+000	5.219142e-001
1.977414399362118e-005	-4.490033e+000	5.219131e-001
1.985694881349111e-005	-4.523657e+000	5.219120e-001
1.993975363336105e-005	-4.554062e+000	5.219110e-001
2.002255845323098e-005	-4.581247e+000	5.219099e-001
2.010536327310092e-005	-4.605212e+000	5.219089e-001
2.025966708008090e-005	-4.651403e+000	5.219071e-001
2.041397088706088e-005	-4.693914e+000	5.219054e-001
2.056827469404087e-005	-4.732745e+000	5.219038e-001
2.072257850102086e-005	-4.767896e+000	5.219023e-001
2.087688230800084e-005	-4.799368e+000	5.219008e-001
2.103118611498082e-005	-4.827160e+000	5.218995e-001
2.118548992196081e-005	-4.851273e+000	5.218982e-001
2.137894743877823e-005	-4.875941e+000	5.218967e-001
2.157240495559565e-005	-4.898082e+000	5.218954e-001
2.176586247241307e-005	-4.917698e+000	5.218941e-001
2.195931998923048e-005	-4.934788e+000	5.218930e-001
2.215277750604790e-005	-4.949352e+000	5.218921e-001
2.234623502286532e-005	-4.961389e+000	5.218912e-001
2.253969253968274e-005	-4.970901e+000	5.218905e-001
2.253969275007673e-005	-4.970901e+000	5.218905e-001
2.253969317086470e-005	-4.970901e+000	5.218905e-001
2.253969401244042e-005	-4.970901e+000	5.218905e-001
2.253969569559209e-005	-4.970901e+000	5.218905e-001
2.253969906189542e-005	-4.970901e+000	5.218905e-001
2.253970253968270e-005	-4.970901e+000	5.218905e-001
2.253970285291109e-005	-4.970901e+000	5.218905e-001
2.253970347936766e-005	-4.970901e+000	5.218905e-001
2.253970473228080e-005	-4.970901e+000	5.218905e-001
2.253970723810708e-005	-4.970902e+000	5.218905e-001
2.253971224975985e-005	-4.970902e+000	5.218905e-001
2.253972227306538e-005	-4.970902e+000	5.218905e-001
2.253974231967624e-005	-4.970904e+000	5.218905e-001
2.253978102464754e-005	-4.970906e+000	5.218905e-001
2.253981713588264e-005	-4.970908e+000	5.218905e-001
2.253987059539766e-005	-4.970911e+000	5.218905e-001
2.253993139900569e-005	-4.970914e+000	5.218905e-001
2.254003560308161e-005	-4.970920e+000	5.218905e-001
2.254010619951049e-005	-4.970924e+000	5.218905e-001
2.254017398982118e-005	-4.970928e+000	5.218905e-001
2.254023633789602e-005	-4.970931e+000	5.218905e-001
2.254026983758255e-005	-4.970933e+000	5.218905e-001
2.254029746270414e-005	-4.970934e+000	5.218905e-001
2.254035144861060e-005	-4.970938e+000	5.218905e-001
2.254040424783631e-005	-4.970941e+000	5.218905e-001
2.254043414377446e-005	-4.970942e+000	5.218905e-001
2.254049393565077e-005	-4.970945e+000	5.218905e-001
2.254061351940361e-005	-4.970952e+000	5.218905e-001
2.254080837748467e-005	-4.970963e+000	5.218905e-001
2.254090287321536e-005	-4.970968e+000	5.218905e-001
2.254095615427634e-005	-4.970971e+000	5.218905e-001
2.254100675876396e-005	-4.970974e+000	5.218905e-001
2.254103950875548e-005	-4.970976e+000	5.218905e-001
2.254105865107515e-005	-4.970977e+000	5.218905e-001
2.254107524946101e-005	-4.970978e+000	5.218905e-001
2.254109334636260e-005	-4.970979e+000	5.218905e-001
2.254112954016576e-005	-4.970981e+000	5.218905e-001
2.254120192777230e-005	-4.970985e+000	5.218905e-001
2.254134670298517e-005	-4.970993e+000	5.218905e-001
2.254153890711257e-005	-4.971004e+000	5.218905e-001
2.254174573340585e-005	-4.971015e+000	5.218905e-001
2.254187314669779e-005	-4.971023e+000	5.218905e-001
2.254196738008711e-005	-4.971028e+000	5.218905e-001
2.254205988363816e-005	-4.971033e+000	5.218905e-001
2.254220397593289e-005	-4.971041e+000	5.218905e-001
2.254242229469592e-005	-4.971053e+000	5.218905e-001
2.254269057985910e-005	-4.971068e+000	5.218905e-001
2.254298270732108e-005	-4.971084e+000	5.218905e-001
2.254328039178214e-005	-4.971101e+000	5.218905e-001
2.254358466787431e-005	-4.971118e+000	5.218905e-001
2.254392902606905e-005	-4.971137e+000	5.218905e-001
2.254432577195953e-005	-4.971159e+000	5.218905e-001
2.254481721147275e-005	-4.971187e+000	5.218905e-001
2.254542587004833e-005	-4.971220e+000	5.218905e-001
2.254626632220997e-005	-4.971267e+000	5.218905e-001
2.254746259874050e-005	-4.971334e+000	5.218905e-001
2.254956307788810e-005	-4.971451e+000	5.218905e-001
2.255376403618331e-005	-4.971685e+000	5.218905e-001
2.256216595277372e-005	-4.972153e+000	5.218905e-001
2.257262397317326e-005	-4.972736e+000	5.218905e-001
2.258524013490858e-005	-4.973439e+000	5.218904e-001
2.259865334035618e-005	-4.974187e+000	5.218903e-001
2.261358913424475e-005	-4.975019e+000	5.218903e-001
2.262858492076462e-005	-4.975855e+000	5.218903e-001
2.264382168153849e-005	-4.976704e+000	5.218902e-001
2.265875266111751e-005	-4.977536e+000	5.218902e-001
2.267439846511451e-005	-4.978408e+000	5.218901e-001
2.268627248461176e-005	-4.979070e+000	5.218901e-001
2.269593023662155e-005	-4.979609e+000	5.218900e-001
2.270658958857560e-005	-4.980203e+000	5.218900e-001
2.271759124313714e-005	-4.980816e+000	5.218900e-001
2.272709000146781e-005	-4.981345e+000	5.218900e-001
2.273695438680980e-005	-4.981895e+000	5.218900e-001
2.274800838971205e-005	-4.982511e+000	5.218899e-001
2.275955968604037e-005	-4.983155e+000	5.218899e-001
2.277167770762417e-005	-4.983830e+000	5.218899e-001
2.278449953821383e-005	-4.984545e+000	5.218899e-001
2.279789206037323e-005	-4.985291e+000	5.218898e-001
2.281191935414942e-005	-4.986073e+000	5.218898e-001
2.282664955501252e-005	-4.986894e+000	5.218897e-001
2.283805350609958e-005	-4.987529e+000	5.218897e-001
2.285079127577151e-005	-4.988239e+000	5.218897e-001
2.286247710355177e-005	-4.988891e+000	5.218897e-001
2.287571421558999e-005	-4.989628e+000	5.218896e-001
2.288862056895949e-005	-4.990347e+000	5.218896e-001
2.290284544544758e-005	-4.991140e+000	5.218896e-001
2.291675787475926e-005	-4.991916e+000	5.218896e-001
2.293165624341542e-005	-4.992746e+000	5.218895e-001
2.294633766385069e-005	-4.993564e+000	5.218895e-001
2.296808923326894e-005	-4.994777e+000	5.218894e-001
2.298819142173853e-005	-4.995897e+000	5.218894e-001
2.300000000000002e-005	-4.996555e+000	5.218894e-001
2.300222300173627e-005	-4.996435e+000	5.218894e-001
2.300666900520898e-005	-4.996194e+000	5.218894e-001
2.303751076449044e-005	-4.994524e+000	5.218893e-001
2.306933239069013e-005	-4.992800e+000	5.218893e-001
2.310115401688981e-005	-4.991076e+000	5.218893e-001
2.313297564308950e-005	-4.989352e+000	5.218892e-001
2.316479726928918e-005	-4.987629e+000	5.218892e-001
2.319661889548887e-005	-4.985905e+000	5.218892e-001
2.322844052168855e-005	-4.984182e+000	5.218891e-001
2.326026214788824e-005	-4.982459e+000	5.218891e-001
2.347890406014116e-005	-4.970616e+000	5.218890e-001
2.377639127248846e-005	-4.954504e+000	5.218893e-001
2.399999999999993e-005	-4.942392e+000	5.218896e-001
2.400102549196754e-005	-4.942161e+000	5.218896e-001
2.400307647590274e-005	-4.941698e+000	5.218896e-001
2.437781935568517e-005	-4.858588e+000	5.218905e-001
2.475256223546760e-005	-4.770327e+000	5.218920e-001
2.512730511525004e-005	-4.676915e+000	5.218939e-001
2.550204799503247e-005	-4.578353e+000	5.218963e-001
2.587679087481490e-005	-4.474640e+000	5.218992e-001
2.625153375459733e-005	-4.365777e+000	5.219027e-001
2.662627663437976e-005	-4.251764e+000	5.219066e-001
2.672943387657091e-005	-4.231044e+000	5.219077e-001
2.683259111876205e-005	-4.202324e+000	5.219088e-001
2.693574836095320e-005	-4.165605e+000	5.219100e-001
2.703890560314434e-005	-4.120886e+000	5.219112e-001
2.714206284533549e-005	-4.068168e+000	5.219125e-001
2.724522008752663e-005	-4.007450e+000	5.219138e-001
2.734837732971777e-005	-3.938732e+000	5.219152e-001
2.759654957362903e-005	-3.792725e+000	5.219186e-001
2.784472181754029e-005	-3.648238e+000	5.219222e-001
2.809289406145154e-005	-3.505272e+000	5.219261e-001
2.834106630536279e-005	-3.363827e+000	5.219301e-001
2.858923854927405e-005	-3.223902e+000	5.219344e-001
2.883741079318530e-005	-3.085499e+000	5.219388e-001
2.908558303709656e-005	-2.948615e+000	5.219434e-001
2.936158674799122e-005	-2.777292e+000	5.219489e-001
2.963759045888589e-005	-2.603241e+000	5.219545e-001
2.991359416978055e-005	-2.426461e+000	5.219604e-001
3.018959788067522e-005	-2.246952e+000	5.219666e-001
3.046560159156988e-005	-2.064715e+000	5.219730e-001
3.074160530246455e-005	-1.879750e+000	5.219796e-001
3.101760901335921e-005	-1.692055e+000	5.219865e-001
3.200307119348412e-005	-1.164951e+000	5.220130e-001
3.203035968200418e-005	-1.139938e+000	5.220138e-001
3.205764817052425e-005	-1.114925e+000	5.220145e-001
3.208493665904431e-005	-1.089912e+000	5.220153e-001
3.211222514756438e-005	-1.064900e+000	5.220161e-001
3.213951363608444e-005	-1.039887e+000	5.220169e-001
3.216680212460451e-005	-1.014874e+000	5.220177e-001
3.219409061312457e-005	-9.898612e-001	5.220185e-001
3.300000000000004e-005	-2.511593e-001	5.220429e-001
3.302861983208220e-005	-2.299564e-001	5.220438e-001
3.306677960819180e-005	-2.016858e-001	5.220450e-001
3.310483942557652e-005	-1.734893e-001	5.220462e-001
3.315009212891748e-005	-1.399640e-001	5.220476e-001
3.319534483225845e-005	-1.064386e-001	5.220491e-001
3.324059753559942e-005	-7.291329e-002	5.220505e-001
3.328585023894038e-005	-3.938795e-002	5.220520e-001
3.333110294228134e-005	-5.862603e-003	5.220535e-001
3.337635564562231e-005	2.766274e-002	5.220550e-001
3.342160834896328e-005	6.118809e-002	5.220565e-001
3.400468578969090e-005	4.922609e-001	5.220761e-001
3.403280052783697e-005	5.076982e-001	5.220771e-001
3.405407735727071e-005	5.193810e-001	5.220778e-001
3.408139989545360e-005	5.343834e-001	5.220788e-001
3.415751246225204e-005	5.761755e-001	5.220814e-001
3.428030477726032e-005	6.432575e-001	5.220858e-001
3.440309709226859e-005	7.105850e-001	5.220901e-001
3.452588940727687e-005	7.781582e-001	5.220945e-001
3.464868172228515e-005	8.459770e-001	5.220990e-001
3.477147403729342e-005	9.140414e-001	5.221035e-001
3.489426635230170e-005	9.823514e-001	5.221080e-001
3.501705866730998e-005	1.050907e+000	5.221126e-001
3.509352227144607e-005	1.105303e+000	5.221155e-001
3.525684183540059e-005	1.223027e+000	5.221217e-001
3.542016139935511e-005	1.339804e+000	5.221280e-001
3.558348096330963e-005	1.455634e+000	5.221343e-001
3.574680052726415e-005	1.570518e+000	5.221407e-001
3.591012009121867e-005	1.684454e+000	5.221472e-001
3.607343965517319e-005	1.797445e+000	5.221538e-001
3.623675921912771e-005	1.909488e+000	5.221605e-001
3.636121282275692e-005	1.990462e+000	5.221656e-001
3.648566642638612e-005	2.072812e+000	5.221708e-001
3.661012003001533e-005	2.156539e+000	5.221760e-001
3.673457363364453e-005	2.241641e+000	5.221813e-001
3.685902723727374e-005	2.328120e+000	5.221866e-001
3.698348084090294e-005	2.415975e+000	5.221919e-001
3.710793444453215e-005	2.505206e+000	5.221972e-001
3.802618176151538e-005	3.198126e+000	5.222383e-001
3.842115716491830e-005	3.411500e+000	5.222566e-001
3.851272255500730e-005	3.465368e+000	5.222609e-001
3.860428794509630e-005	3.517190e+000	5.222653e-001
3.869585333518530e-005	3.566966e+000	5.222696e-001
3.878741872527430e-005	3.614698e+000	5.222740e-001
3.887898411536330e-005	3.660384e+000	5.222784e-001
3.897054950545230e-005	3.704025e+000	5.222828e-001
3.906211489554130e-005	3.745620e+000	5.222872e-001
3.935176957503998e-005	3.844655e+000	5.223015e-001
3.964142425453866e-005	3.945591e+000	5.223159e-001
3.993107893403735e-005	4.048428e+000	5.223305e-001
4.022073361353603e-005	4.153167e+000	5.223453e-001
4.051038829303471e-005	4.259806e+000	5.223603e-001
4.080004297253340e-005	4.368347e+000	5.223755e-001
4.108969765203208e-005	4.478789e+000	5.223910e-001
4.138107416703278e-005	4.568999e+000	5.224067e-001
4.167245068203349e-005	4.651645e+000	5.224227e-001
4.196382719703420e-005	4.726726e+000	5.224388e-001
4.225520371203491e-005	4.794243e+000	5.224551e-001
4.254658022703561e-005	4.854195e+000	5.224716e-001
4.283795674203632e-005	4.906583e+000	5.224884e-001
4.312933325703702e-005	4.951406e+000	5.225053e-001
4.341532322017331e-005	4.974795e+000	5.225220e-001
4.370131318330958e-005	4.989467e+000	5.225390e-001
4.398730314644586e-005	4.995420e+000	5.225561e-001
4.427329310958214e-005	4.992655e+000	5.225734e-001
4.455928307271842e-005	4.981172e+000	5.225909e-001
4.484527303585470e-005	4.960970e+000	5.226085e-001
4.513126299899098e-005	4.932050e+000	5.226263e-001
4.542006098122817e-005	4.878737e+000	5.226445e-001
4.570885896346536e-005	4.819206e+000	5.226628e-001
4.599765694570254e-005	4.753457e+000	5.226812e-001
4.628645492793974e-005	4.681490e+000	5.226999e-001
4.657525291017693e-005	4.603305e+000	5.227186e-001
4.686405089241411e-005	4.518902e+000	5.227376e-001
4.715284887465130e-005	4.428282e+000	5.227567e-001
4.742623221890860e-005	4.326405e+000	5.227749e-001
4.769961556316589e-005	4.219911e+000	5.227933e-001
4.797299890742318e-005	4.108798e+000	5.228117e-001
4.824638225168048e-005	3.993068e+000	5.228303e-001
4.851976559593778e-005	3.872720e+000	5.228490e-001
4.879314894019507e-005	3.747753e+000	5.228679e-001
4.906653228445236e-005	3.618169e+000	5.228868e-001
5.001859731832109e-005	3.225947e+000	5.229537e-001
5.006629054158557e-005	3.189691e+000	5.229572e-001
5.011398376485007e-005	3.153435e+000	5.229606e-001
5.016167698811455e-005	3.117180e+000	5.229640e-001
5.020937021137904e-005	3.080924e+000	5.229674e-001
5.025706343464352e-005	3.044669e+000	5.229708e-001
5.030475665790801e-005	3.008413e+000	5.229742e-001
5.035244988117250e-005	2.972157e+000	5.229776e-001
5.046530450434458e-005	2.882843e+000	5.229857e-001
5.057815912751666e-005	2.795353e+000	5.229938e-001
5.069101375068874e-005	2.709686e+000	5.230019e-001
5.080386837386082e-005	2.625843e+000	5.230100e-001
5.091672299703289e-005	2.543824e+000	5.230182e-001
5.102957762020498e-005	2.463628e+000	5.230263e-001
5.114243224337706e-005	2.385255e+000	5.230345e-001
5.127012815739627e-005	2.299832e+000	5.230438e-001
5.139782407141549e-005	2.214832e+000	5.230531e-001
5.152551998543470e-005	2.130255e+000	5.230624e-001
5.165321589945391e-005	2.046101e+000	5.230718e-001
5.178091181347312e-005	1.962370e+000	5.230812e-001
5.190860772749234e-005	1.879063e+000	5.230906e-001
5.203630364151155e-005	1.796178e+000	5.231000e-001
5.211156077478006e-005	1.756313e+000	5.231055e-001
5.218681790804856e-005	1.716448e+000	5.231111e-001
5.226207504131706e-005	1.676583e+000	5.231167e-001
5.233733217458557e-005	1.636718e+000	5.231222e-001
