time	V(vin)	V(vout)
0.000000000000000e+000	4.810715e+000	1.061747e+000
1.705398145529106e-007	4.841468e+000	1.061711e+000
3.410796291058212e-007	4.869182e+000	1.061674e+000
5.116194436587318e-007	4.893858e+000	1.061638e+000
6.821592582116424e-007	4.915495e+000	1.061602e+000
8.526990727645530e-007	4.934094e+000	1.061565e+000
1.023238887317464e-006	4.949654e+000	1.061529e+000
1.193778701870374e-006	4.962175e+000	1.061494e+000
1.335751051230789e-006	4.971550e+000	1.061464e+000
1.477723400591204e-006	4.977924e+000	1.061434e+000
1.619695749951619e-006	4.981297e+000	1.061405e+000
1.761668099312034e-006	4.981668e+000	1.061375e+000
1.903640448672449e-006	4.979038e+000	1.061346e+000
2.045612798032864e-006	4.973407e+000	1.061317e+000
2.187585147393279e-006	4.964774e+000	1.061288e+000
2.464528994429282e-006	4.944410e+000	1.061231e+000
2.741472841465285e-006	4.918546e+000	1.061175e+000
3.018416688501288e-006	4.887182e+000	1.061119e+000
3.295360535537291e-006	4.850317e+000	1.061064e+000
3.572304382573294e-006	4.807951e+000	1.061009e+000
3.849248229609298e-006	4.760085e+000	1.060954e+000
4.126192076645300e-006	4.706718e+000	1.060900e+000
4.284388314142854e-006	4.666532e+000	1.060869e+000
4.442584551640407e-006	4.623636e+000	1.060839e+000
4.600780789137961e-006	4.578031e+000	1.060808e+000
4.758977026635514e-006	4.529717e+000	1.060778e+000
4.917173264133068e-006	4.478693e+000	1.060747e+000
5.075369501630621e-006	4.424960e+000	1.060717e+000
5.233565739128174e-006	4.368518e+000	1.060687e+000
5.351956471839148e-006	4.326461e+000	1.060665e+000
5.470347204550122e-006	4.282651e+000	1.060643e+000
5.588737937261096e-006	4.237089e+000	1.060620e+000
5.707128669972069e-006	4.189773e+000	1.060598e+000
5.825519402683043e-006	4.140705e+000	1.060576e+000
5.943910135394017e-006	4.089884e+000	1.060554e+000
6.062300868104990e-006	4.037311e+000	1.060532e+000
6.679061722900765e-006	3.662742e+000	1.060419e+000
6.884443405755132e-006	3.539010e+000	1.060382e+000
7.089825088609499e-006	3.417778e+000	1.060345e+000
7.295206771463866e-006	3.299046e+000	1.060309e+000
7.500588454318233e-006	3.182813e+000	1.060272e+000
7.705970137172600e-006	3.069081e+000	1.060236e+000
7.911351820026967e-006	2.957849e+000	1.060200e+000
8.116733502881333e-006	2.849116e+000	1.060165e+000
9.011202219983555e-006	2.422844e+000	1.060012e+000
9.058705260973259e-006	2.382524e+000	1.060004e+000
9.150601753621411e-006	2.304525e+000	1.059989e+000
9.273789704822208e-006	2.199803e+000	1.059968e+000
9.396977656023005e-006	2.095217e+000	1.059948e+000
9.520165607223802e-006	1.990767e+000	1.059928e+000
9.643353558424598e-006	1.886453e+000	1.059907e+000
9.766541509625393e-006	1.782276e+000	1.059887e+000
9.889729460826190e-006	1.678235e+000	1.059867e+000
1.001291741202699e-005	1.574331e+000	1.059847e+000
1.003875223608113e-005	1.555838e+000	1.059843e+000
1.007806108480817e-005	1.527701e+000	1.059837e+000
1.016607380958478e-005	1.464701e+000	1.059822e+000
1.031889709352711e-005	1.356167e+000	1.059798e+000
1.047172037746944e-005	1.247098e+000	1.059773e+000
1.062454366141177e-005	1.137493e+000	1.059749e+000
1.077736694535410e-005	1.027353e+000	1.059725e+000
1.093019022929643e-005	9.166770e-001	1.059701e+000
1.108301351323876e-005	8.054655e-001	1.059677e+000
1.123583679718109e-005	6.937186e-001	1.059654e+000
1.148848551089950e-005	5.072506e-001	1.059615e+000
1.174113422461791e-005	3.207104e-001	1.059576e+000
1.199378293833632e-005	1.340978e-001	1.059538e+000
1.224643165205473e-005	-5.258707e-002	1.059501e+000
1.249908036577314e-005	-2.393443e-001	1.059464e+000
1.275172907949155e-005	-4.261738e-001	1.059427e+000
1.300437779320996e-005	-6.130756e-001	1.059390e+000
1.303559527804573e-005	-6.301442e-001	1.059386e+000
1.306681276288150e-005	-6.472129e-001	1.059381e+000
1.309803024771726e-005	-6.642815e-001	1.059377e+000
1.312924773255303e-005	-6.813501e-001	1.059372e+000
1.316046521738880e-005	-6.984188e-001	1.059368e+000
1.319168270222456e-005	-7.154874e-001	1.059363e+000
1.322290018706033e-005	-7.325560e-001	1.059359e+000
1.400768562962547e-005	-1.164168e+000	1.059250e+000
1.404282821560836e-005	-1.194901e+000	1.059245e+000
1.407797080159126e-005	-1.225635e+000	1.059240e+000
1.411311338757416e-005	-1.256368e+000	1.059235e+000
1.414825597355706e-005	-1.287101e+000	1.059230e+000
1.418339855953996e-005	-1.317834e+000	1.059226e+000
1.421854114552286e-005	-1.348567e+000	1.059221e+000
1.425368373150575e-005	-1.379300e+000	1.059216e+000
1.502352458159374e-005	-2.047423e+000	1.059114e+000
1.516780344619353e-005	-2.143007e+000	1.059095e+000
1.531208231079332e-005	-2.237985e+000	1.059076e+000
1.545636117539310e-005	-2.332357e+000	1.059058e+000
1.560064003999290e-005	-2.426123e+000	1.059039e+000
1.574491890459268e-005	-2.519283e+000	1.059021e+000
1.588919776919248e-005	-2.611837e+000	1.059003e+000
1.603347663379226e-005	-2.703785e+000	1.058985e+000
1.618823515962603e-005	-2.771856e+000	1.058966e+000
1.634299368545979e-005	-2.840932e+000	1.058947e+000
1.649775221129355e-005	-2.911014e+000	1.058929e+000
1.665251073712732e-005	-2.982102e+000	1.058910e+000
1.680726926296108e-005	-3.054196e+000	1.058891e+000
1.696202778879484e-005	-3.127295e+000	1.058873e+000
1.711678631462861e-005	-3.201400e+000	1.058855e+000
1.744403824108988e-005	-3.380833e+000	1.058817e+000
1.777129016755114e-005	-3.553617e+000	1.058780e+000
1.809854209401241e-005	-3.719753e+000	1.058744e+000
1.842579402047368e-005	-3.879240e+000	1.058708e+000
1.875304594693495e-005	-4.032078e+000	1.058673e+000
1.908029787339621e-005	-4.178269e+000	1.058639e+000
1.940754979985748e-005	-4.317810e+000	1.058605e+000
2.000000000000005e-005	-4.578634e+000	1.058546e+000
2.000001000000001e-005	-4.578637e+000	1.058546e+000
2.016170720775726e-005	-4.622667e+000	1.058531e+000
2.032340441551451e-005	-4.664722e+000	1.058515e+000
2.048510162327176e-005	-4.704803e+000	1.058500e+000
2.064679883102901e-005	-4.742909e+000	1.058485e+000
2.080849603878626e-005	-4.779040e+000	1.058470e+000
2.097019324654351e-005	-4.813197e+000	1.058455e+000
2.113189045430076e-005	-4.845379e+000	1.058441e+000
2.226171509240324e-005	-4.955409e+000	1.058344e+000
2.226376310714390e-005	-4.955523e+000	1.058344e+000
2.226618232334279e-005	-4.955657e+000	1.058343e+000
2.226742256838509e-005	-4.955727e+000	1.058343e+000
2.226888124581545e-005	-4.955808e+000	1.058343e+000
2.227422088881275e-005	-4.956106e+000	1.058343e+000
2.228134041280913e-005	-4.956502e+000	1.058342e+000
2.229557946080213e-005	-4.957296e+000	1.058341e+000
2.232405755678811e-005	-4.958883e+000	1.058339e+000
2.237338125866050e-005	-4.961632e+000	1.058335e+000
2.245419801690895e-005	-4.966136e+000	1.058328e+000
2.249073269057684e-005	-4.968172e+000	1.058325e+000
2.253968253968278e-005	-4.970901e+000	1.058321e+000
2.254457752459346e-005	-4.971173e+000	1.058321e+000
2.255436749441461e-005	-4.971719e+000	1.058320e+000
2.284806658904895e-005	-4.988087e+000	1.058297e+000
2.288003019486535e-005	-4.991586e+000	1.058294e+000
2.291199380068175e-005	-4.994137e+000	1.058292e+000
2.294395740649814e-005	-4.995740e+000	1.058289e+000
2.297592101231454e-005	-4.996394e+000	1.058287e+000
2.300788461813094e-005	-4.996099e+000	1.058285e+000
2.303984822394733e-005	-4.994857e+000	1.058282e+000
2.307181182976373e-005	-4.992665e+000	1.058280e+000
2.314086582001730e-005	-4.988925e+000	1.058274e+000
2.321768450484134e-005	-4.984765e+000	1.058269e+000
2.331723314882091e-005	-4.979373e+000	1.058261e+000
2.346207258792322e-005	-4.971528e+000	1.058250e+000
2.358634382407850e-005	-4.964797e+000	1.058241e+000
2.376639952423112e-005	-4.955044e+000	1.058228e+000
2.384969225399878e-005	-4.952001e+000	1.058222e+000
2.393298498376643e-005	-4.945615e+000	1.058216e+000
2.401627771353409e-005	-4.935887e+000	1.058211e+000
2.409957044330174e-005	-4.922816e+000	1.058205e+000
2.418286317306940e-005	-4.906403e+000	1.058199e+000
2.426615590283705e-005	-4.886647e+000	1.058193e+000
2.434944863260471e-005	-4.863550e+000	1.058188e+000
2.445316563500269e-005	-4.840149e+000	1.058181e+000
2.456413402619545e-005	-4.815113e+000	1.058173e+000
2.478607080858095e-005	-4.765040e+000	1.058159e+000
2.502416423731647e-005	-4.709888e+000	1.058144e+000
2.512821297144344e-005	-4.680237e+000	1.058137e+000
2.523226170557041e-005	-4.650587e+000	1.058131e+000
2.533631043969738e-005	-4.620937e+000	1.058124e+000
2.544035917382436e-005	-4.591287e+000	1.058118e+000
2.554440790795133e-005	-4.561637e+000	1.058112e+000
2.564845664207830e-005	-4.531986e+000	1.058106e+000
2.575250537620527e-005	-4.502336e+000	1.058100e+000
2.604027463758412e-005	-4.420231e+000	1.058083e+000
2.628192246308852e-005	-4.350760e+000	1.058070e+000
2.660411956376119e-005	-4.258134e+000	1.058053e+000
2.666924216698193e-005	-4.249340e+000	1.058050e+000
2.673436477020268e-005	-4.236372e+000	1.058046e+000
2.679948737342343e-005	-4.219230e+000	1.058043e+000
2.686460997664418e-005	-4.197915e+000	1.058040e+000
2.692973257986492e-005	-4.172427e+000	1.058037e+000
2.699485518308567e-005	-4.142764e+000	1.058033e+000
2.705997778630642e-005	-4.108929e+000	1.058030e+000
2.728044206334293e-005	-3.976320e+000	1.058019e+000
2.750090634037945e-005	-3.845648e+000	1.058009e+000
2.772137061741596e-005	-3.716913e+000	1.057999e+000
2.794183489445248e-005	-3.590115e+000	1.057990e+000
2.816229917148899e-005	-3.465255e+000	1.057980e+000
2.838276344852551e-005	-3.342331e+000	1.057972e+000
2.860322772556202e-005	-3.221344e+000	1.057963e+000
2.875774899948537e-005	-3.136588e+000	1.057957e+000
2.891227027340871e-005	-3.049155e+000	1.057951e+000
2.906679154733205e-005	-2.959045e+000	1.057946e+000
2.922131282125539e-005	-2.866259e+000	1.057941e+000
2.937583409517873e-005	-2.770796e+000	1.057935e+000
2.953035536910207e-005	-2.672657e+000	1.057930e+000
2.968487664302541e-005	-2.571841e+000	1.057926e+000
2.987592294108998e-005	-2.449188e+000	1.057920e+000
3.006696923915456e-005	-2.325407e+000	1.057914e+000
3.025801553721913e-005	-2.200500e+000	1.057909e+000
3.044906183528371e-005	-2.074467e+000	1.057904e+000
3.064010813334828e-005	-1.947306e+000	1.057899e+000
3.083115443141286e-005	-1.819019e+000	1.057895e+000
3.102220072947744e-005	-1.689605e+000	1.057890e+000
3.200483756754784e-005	-1.163332e+000	1.057872e+000
3.203211366114087e-005	-1.138330e+000	1.057872e+000
3.205938975473390e-005	-1.113329e+000	1.057871e+000
3.208666584832693e-005	-1.088327e+000	1.057871e+000
3.211394194191996e-005	-1.063326e+000	1.057871e+000
3.214121803551299e-005	-1.038325e+000	1.057870e+000
3.216849412910601e-005	-1.013323e+000	1.057870e+000
3.219577022269904e-005	-9.883217e-001	1.057870e+000
3.300000000000004e-005	-2.511593e-001	1.057861e+000
3.302676052242587e-005	-2.313339e-001	1.057860e+000
3.306244121899357e-005	-2.048999e-001	1.057860e+000
3.309588188930585e-005	-1.801255e-001	1.057860e+000
3.313853827893605e-005	-1.485236e-001	1.057859e+000
3.318119466856623e-005	-1.169217e-001	1.057859e+000
3.322385105819643e-005	-8.531987e-002	1.057859e+000
3.326650744782661e-005	-5.371800e-002	1.057859e+000
3.330916383745681e-005	-2.211613e-002	1.057858e+000
3.335182022708700e-005	9.485743e-003	1.057858e+000
3.339447661671719e-005	4.108762e-002	1.057858e+000
3.399999999999996e-005	4.896880e-001	1.057855e+000
3.401962077643084e-005	5.004615e-001	1.057855e+000
3.404578181167217e-005	5.148261e-001	1.057855e+000
3.406893841372189e-005	5.275409e-001	1.057855e+000
3.409873871533216e-005	5.439038e-001	1.057855e+000
3.501595198398665e-005	1.050120e+000	1.057857e+000
3.508628946954093e-005	1.100158e+000	1.057857e+000
3.600000999999997e-005	1.750178e+000	1.057865e+000
3.600001240000009e-005	1.750180e+000	1.057865e+000
3.600001560000003e-005	1.750182e+000	1.057865e+000
3.600002000000015e-005	1.750185e+000	1.057865e+000
3.600151787427987e-005	1.751193e+000	1.057865e+000
3.600301574855958e-005	1.752201e+000	1.057865e+000
3.600451362283930e-005	1.753209e+000	1.057865e+000
3.600601149711902e-005	1.754217e+000	1.057865e+000
3.600750937139874e-005	1.755225e+000	1.057865e+000
3.600900724567846e-005	1.756232e+000	1.057865e+000
3.601050511995818e-005	1.757240e+000	1.057865e+000
3.602099087991620e-005	1.764296e+000	1.057865e+000
3.604196239983246e-005	1.778408e+000	1.057866e+000
3.607821395650371e-005	1.802802e+000	1.057866e+000
3.613203241640346e-005	1.839017e+000	1.057867e+000
3.613564851971565e-005	1.841450e+000	1.057867e+000
3.614288072634002e-005	1.846317e+000	1.057867e+000
3.615734513958899e-005	1.856050e+000	1.057867e+000
3.617794006906283e-005	1.869909e+000	1.057867e+000
3.619907553498712e-005	1.884131e+000	1.057867e+000
3.623934687549965e-005	1.911230e+000	1.057868e+000
3.631988955652473e-005	1.965427e+000	1.057869e+000
3.641170273413529e-005	2.027209e+000	1.057870e+000
3.650450777382768e-005	2.089658e+000	1.057872e+000
3.660152737478732e-005	2.154943e+000	1.057873e+000
3.673623380743857e-005	2.245588e+000	1.057875e+000
3.689135050540904e-005	2.349967e+000	1.057878e+000
3.699999999999992e-005	2.423079e+000	1.057880e+000
3.701260823870669e-005	2.432672e+000	1.057880e+000
3.703782471612045e-005	2.451859e+000	1.057880e+000
3.708825767094796e-005	2.490234e+000	1.057881e+000
3.713525401261518e-005	2.525994e+000	1.057882e+000
3.719447303766107e-005	2.571054e+000	1.057883e+000
3.726000797555653e-005	2.620919e+000	1.057884e+000
3.733869659750867e-005	2.680794e+000	1.057886e+000
3.749607384141295e-005	2.800543e+000	1.057889e+000
3.766566213805802e-005	2.929583e+000	1.057893e+000
3.802578408989448e-005	3.197912e+000	1.057901e+000
3.842264218917703e-005	3.412302e+000	1.057911e+000
3.852180830574987e-005	3.471944e+000	1.057914e+000
3.862097442232272e-005	3.528476e+000	1.057917e+000
3.872014053889556e-005	3.581897e+000	1.057920e+000
3.881930665546840e-005	3.632208e+000	1.057922e+000
3.891847277204124e-005	3.679408e+000	1.057925e+000
3.901763888861408e-005	3.723498e+000	1.057928e+000
3.911680500518692e-005	3.764477e+000	1.057931e+000
3.939890296773470e-005	3.861145e+000	1.057940e+000
3.968100093028247e-005	3.959629e+000	1.057950e+000
3.996309889283025e-005	4.059931e+000	1.057960e+000
4.024519685537803e-005	4.162049e+000	1.057970e+000
4.052729481792580e-005	4.265983e+000	1.057981e+000
4.080939278047357e-005	4.371735e+000	1.057993e+000
4.109149074302135e-005	4.479302e+000	1.058005e+000
4.138375699157331e-005	4.570073e+000	1.058017e+000
4.167602324012526e-005	4.653089e+000	1.058031e+000
4.196828948867722e-005	4.728351e+000	1.058045e+000
4.226055573722918e-005	4.795858e+000	1.058059e+000
4.255282198578114e-005	4.855610e+000	1.058074e+000
4.284508823433310e-005	4.907607e+000	1.058089e+000
4.313735448288505e-005	4.951850e+000	1.058105e+000
4.341981720015488e-005	4.974686e+000	1.058121e+000
4.370227991742471e-005	4.989129e+000	1.058137e+000
4.398474263469454e-005	4.995178e+000	1.058154e+000
4.426720535196438e-005	4.992835e+000	1.058171e+000
4.454966806923421e-005	4.982098e+000	1.058189e+000
4.483213078650404e-005	4.962969e+000	1.058207e+000
4.511459350377387e-005	4.935446e+000	1.058225e+000
4.540876562850027e-005	4.881395e+000	1.058245e+000
4.570293775322669e-005	4.820828e+000	1.058265e+000
4.599710987795309e-005	4.753745e+000	1.058286e+000
4.629128200267950e-005	4.680146e+000	1.058307e+000
4.658545412740591e-005	4.600031e+000	1.058329e+000
4.687962625213232e-005	4.513400e+000	1.058351e+000
4.717379837685873e-005	4.420254e+000	1.058373e+000
4.744214398367416e-005	4.320079e+000	1.058394e+000
4.771048959048959e-005	4.215377e+000	1.058415e+000
4.797883519730503e-005	4.106149e+000	1.058437e+000
4.824718080412046e-005	3.992394e+000	1.058459e+000
4.851552641093589e-005	3.874112e+000	1.058482e+000
4.878387201775133e-005	3.751303e+000	1.058504e+000
4.905221762456676e-005	3.623967e+000	1.058527e+000
5.002137837848558e-005	3.223833e+000	1.058614e+000
5.007417094735111e-005	3.183700e+000	1.058619e+000
5.012696351621663e-005	3.143568e+000	1.058624e+000
5.017975608508215e-005	3.103436e+000	1.058628e+000
5.023254865394768e-005	3.063304e+000	1.058633e+000
5.028534122281320e-005	3.023172e+000	1.058638e+000
5.033813379167872e-005	2.983040e+000	1.058643e+000
5.039092636054425e-005	2.942908e+000	1.058648e+000
5.049256140730254e-005	2.863373e+000	1.058658e+000
5.059419645406083e-005	2.785063e+000	1.058667e+000
5.069583150081912e-005	2.707976e+000	1.058677e+000
5.079746654757742e-005	2.632114e+000	1.058686e+000
5.089910159433571e-005	2.557477e+000	1.058696e+000
5.100073664109400e-005	2.484064e+000	1.058706e+000
5.110237168785229e-005	2.411875e+000	1.058715e+000
5.203230570712957e-005	1.798296e+000	1.058807e+000
5.213728500292974e-005	1.742687e+000	1.058818e+000
5.301411586123889e-005	1.275412e+000	1.058908e+000
5.305374444953127e-005	1.246554e+000	1.058913e+000
5.308005493168230e-005	1.227394e+000	1.058915e+000
5.311136066841462e-005	1.204596e+000	1.058919e+000
5.327267595983264e-005	1.087122e+000	1.058936e+000
5.400207110243366e-005	5.566781e-001	1.059014e+000
5.402290427945122e-005	5.487481e-001	1.059017e+000
5.404373745646877e-005	5.408180e-001	1.059019e+000
5.406457063348633e-005	5.328879e-001	1.059021e+000
5.408540381050389e-005	5.249579e-001	1.059023e+000
5.410623698752145e-005	5.170278e-001	1.059026e+000
5.412707016453900e-005	5.090977e-001	1.059028e+000
5.414790334155656e-005	5.011677e-001	1.059030e+000
5.428571428571440e-005	4.487105e-001	1.059045e+000
5.499999999999993e-005	1.768205e-001	1.059125e+000
5.500759459172821e-005	1.837842e-001	1.059126e+000
5.501518918345650e-005	1.907480e-001	1.059127e+000
5.502278377518479e-005	1.977117e-001	1.059128e+000
5.503037836691307e-005	2.046754e-001	1.059129e+000
5.503797295864136e-005	2.116391e-001	1.059130e+000
5.504556755036964e-005	2.186029e-001	1.059130e+000
5.505316214209793e-005	2.255666e-001	1.059131e+000
5.506640716096325e-005	2.377114e-001	1.059133e+000
5.508495772587707e-005	2.547210e-001	1.059135e+000
5.511246150741059e-005	2.799401e-001	1.059138e+000
5.522189467613596e-005	3.802829e-001	1.059151e+000
5.533478694746894e-005	4.841478e-001	1.059164e+000
5.544767921880194e-005	5.877771e-001	1.059176e+000
5.556057149013492e-005	6.911709e-001	1.059189e+000
5.567346376146792e-005	7.943291e-001	1.059203e+000
5.578635603280090e-005	8.972517e-001	1.059216e+000
5.589924830413390e-005	9.999388e-001	1.059229e+000
5.601214057546688e-005	1.102390e+000	1.059242e+000
5.602832800942286e-005	1.113907e+000	1.059244e+000
5.605161153654091e-005	1.130472e+000	1.059247e+000
5.607859869858223e-005	1.149673e+000	1.059250e+000
5.611096053661949e-005	1.172697e+000	1.059254e+000
5.701033472446269e-005	1.810438e+000	1.059361e+000
5.706870178236005e-005	1.839929e+000	1.059368e+000
5.803964687287511e-005	2.335451e+000	1.059487e+000
5.820375632186083e-005	2.441450e+000	1.059507e+000
5.836786577084655e-005	2.545988e+000	1.059528e+000
5.853197521983228e-005	2.649066e+000	1.059549e+000
5.869608466881801e-005	2.750683e+000	1.059569e+000
5.886019411780373e-005	2.850840e+000	1.059590e+000
5.902430356678945e-005	2.949535e+000	1.059611e+000
5.918841301577518e-005	3.046770e+000	1.059632e+000
5.984734489458709e-005	3.419158e+000	1.059717e+000
5.999999999999994e-005	3.505430e+000	1.059737e+000
6.000000699999991e-005	3.505434e+000	1.059737e+000
6.000001000000012e-005	3.505436e+000	1.059737e+000
6.000001080000016e-005	3.505436e+000	1.059737e+000
6.015075200008065e-005	3.596866e+000	1.059757e+000
6.030149320016113e-005	3.687019e+000	1.059776e+000
6.045223440024162e-005	3.775898e+000	1.059796e+000
6.060297560032210e-005	3.863501e+000	1.059816e+000
6.075371680040259e-005	3.949828e+000	1.059836e+000
6.090445800048307e-005	4.034881e+000	1.059856e+000
6.105519920056356e-005	4.118658e+000	1.059876e+000
6.120316573094472e-005	4.178850e+000	1.059896e+000
6.135113226132588e-005	4.237213e+000	1.059916e+000
6.149909879170704e-005	4.293747e+000	1.059936e+000
6.164706532208819e-005	4.348453e+000	1.059956e+000
6.179503185246935e-005	4.401330e+000	1.059976e+000
6.194299838285051e-005	4.452378e+000	1.059996e+000
6.209096491323167e-005	4.501597e+000	1.060016e+000
6.226079052870561e-005	4.538149e+000	1.060040e+000
6.226483329753452e-005	4.539020e+000	1.060040e+000
6.226759294440686e-005	4.539614e+000	1.060040e+000
