time	V(vin)	V(vout)
0.000000000000000e+000	5.000000e+000	-9.097891e-001
1.428571428571309e-007	4.995714e+000	-9.071338e-001
2.857142857142618e-007	4.991429e+000	-9.044836e-001
4.285714285713927e-007	4.987143e+000	-9.018384e-001
5.714285714285235e-007	4.982857e+000	-8.991983e-001
7.142857142856544e-007	4.978571e+000	-8.965633e-001
8.571428571427854e-007	4.974286e+000	-8.939333e-001
9.999999999999159e-007	4.970000e+000	-8.913085e-001
2.000000000000049e-006	4.940000e+000	-8.730893e-001
2.999999999999965e-006	4.910000e+000	-8.551422e-001
3.999999999999880e-006	4.880000e+000	-8.374761e-001
5.000000000000013e-006	4.850000e+000	-8.201010e-001
5.882352941177609e-006	4.823529e+000	-8.050174e-001
5.882353941177605e-006	4.823529e+000	-8.050174e-001
5.882355941177597e-006	4.823529e+000	-8.050173e-001
5.882359941177581e-006	4.823529e+000	-8.050172e-001
5.882362941177569e-006	4.823529e+000	-8.050172e-001
5.882363109850153e-006	4.823529e+000	-8.050172e-001
5.882363447195539e-006	4.823529e+000	-8.050172e-001
5.882364121886311e-006	4.823529e+000	-8.050172e-001
5.882365471267638e-006	4.823529e+000	-8.050171e-001
5.882368170030509e-006	4.823529e+000	-8.050171e-001
5.882373567556035e-006	4.823529e+000	-8.050170e-001
5.882384362607303e-006	4.823528e+000	-8.050168e-001
5.882398475943887e-006	4.823528e+000	-8.050166e-001
5.882412779611513e-006	4.823528e+000	-8.050163e-001
5.882422620483120e-006	4.823527e+000	-8.050162e-001
5.882434180002087e-006	4.823527e+000	-8.050160e-001
5.882443073793823e-006	4.823527e+000	-8.050158e-001
5.882452573395449e-006	4.823526e+000	-8.050157e-001
5.882471572598918e-006	4.823526e+000	-8.050153e-001
5.882498657283240e-006	4.823525e+000	-8.050148e-001
5.882525547056200e-006	4.823524e+000	-8.050144e-001
5.882569406077433e-006	4.823523e+000	-8.050137e-001
5.882617154948479e-006	4.823522e+000	-8.050129e-001
5.882635902266196e-006	4.823521e+000	-8.050125e-001
5.882648201668795e-006	4.823521e+000	-8.050123e-001
5.882658668068461e-006	4.823520e+000	-8.050122e-001
5.882669525307830e-006	4.823520e+000	-8.050120e-001
5.882688987671842e-006	4.823519e+000	-8.050116e-001
5.882724741603559e-006	4.823518e+000	-8.050110e-001
5.882762129528346e-006	4.823517e+000	-8.050104e-001
5.882836110748585e-006	4.823515e+000	-8.050091e-001
5.882910222802535e-006	4.823513e+000	-8.050079e-001
5.882982979172474e-006	4.823511e+000	-8.050067e-001
5.883046936944929e-006	4.823509e+000	-8.050056e-001
5.883107348282754e-006	4.823507e+000	-8.050045e-001
5.883168293847755e-006	4.823505e+000	-8.050035e-001
5.883229347952886e-006	4.823503e+000	-8.050025e-001
5.883310248589986e-006	4.823501e+000	-8.050011e-001
5.883430221000465e-006	4.823497e+000	-8.049991e-001
5.883594019823711e-006	4.823492e+000	-8.049963e-001
5.883754791589837e-006	4.823487e+000	-8.049936e-001
5.883917845729905e-006	4.823483e+000	-8.049908e-001
5.884104413677411e-006	4.823477e+000	-8.049876e-001
5.884273326808506e-006	4.823472e+000	-8.049847e-001
5.884425975784865e-006	4.823467e+000	-8.049822e-001
5.884537546696662e-006	4.823464e+000	-8.049803e-001
5.884664572138694e-006	4.823460e+000	-8.049781e-001
5.884908296160127e-006	4.823453e+000	-8.049740e-001
5.885142384886395e-006	4.823446e+000	-8.049700e-001
5.885481319670930e-006	4.823436e+000	-8.049643e-001
5.885931636307124e-006	4.823422e+000	-8.049566e-001
5.886449519407894e-006	4.823407e+000	-8.049479e-001
5.886962331701391e-006	4.823391e+000	-8.049392e-001
5.887529138326247e-006	4.823374e+000	-8.049296e-001
5.888332457917216e-006	4.823350e+000	-8.049159e-001
5.889169281752919e-006	4.823325e+000	-8.049017e-001
5.890458888699974e-006	4.823286e+000	-8.048798e-001
5.892244688795664e-006	4.823233e+000	-8.048496e-001
5.894569994679055e-006	4.823163e+000	-8.048102e-001
5.897227632858026e-006	4.823083e+000	-8.047650e-001
5.900675825007157e-006	4.822980e+000	-8.047066e-001
5.905153259396119e-006	4.822845e+000	-8.046307e-001
5.911925849462572e-006	4.822642e+000	-8.045158e-001
5.922582295498496e-006	4.822322e+000	-8.043352e-001
5.935710677899223e-006	4.821929e+000	-8.041127e-001
5.951942522317705e-006	4.821442e+000	-8.038377e-001
5.967097825134013e-006	4.820987e+000	-8.035810e-001
5.982962864857803e-006	4.820511e+000	-8.033124e-001
5.997737247132691e-006	4.820068e+000	-8.030622e-001
5.999999999999929e-006	4.820000e+000	-8.030239e-001
6.001588149288873e-006	4.819952e+000	-8.029971e-001
6.004764447866979e-006	4.819857e+000	-8.029433e-001
6.011117045023190e-006	4.819666e+000	-8.028358e-001
6.022457886653131e-006	4.819326e+000	-8.026439e-001
6.037751739869758e-006	4.818868e+000	-8.023852e-001
6.048607536278264e-006	4.818542e+000	-8.022015e-001
6.060416648372060e-006	4.818188e+000	-8.020018e-001
6.071769310336643e-006	4.817847e+000	-8.018099e-001
6.084333979810555e-006	4.817470e+000	-8.015975e-001
6.096640880030174e-006	4.817101e+000	-8.013896e-001
6.110243262455895e-006	4.816693e+000	-8.011598e-001
6.123664516563760e-006	4.816290e+000	-8.009331e-001
6.138100455587358e-006	4.815857e+000	-8.006893e-001
6.151872688098465e-006	4.815444e+000	-8.004568e-001
6.165838467941378e-006	4.815025e+000	-8.002211e-001
6.180012843242906e-006	4.814600e+000	-7.999820e-001
6.194620061573432e-006	4.814161e+000	-7.997355e-001
6.209413628006054e-006	4.813717e+000	-7.994861e-001
6.224589320238429e-006	4.813262e+000	-7.992302e-001
6.239825614746172e-006	4.812805e+000	-7.989734e-001
6.256399801366983e-006	4.812308e+000	-7.986941e-001
6.271947712819864e-006	4.811841e+000	-7.984322e-001
6.286264880848687e-006	4.811412e+000	-7.981911e-001
6.301821709971556e-006	4.810946e+000	-7.979292e-001
6.316310418294285e-006	4.810511e+000	-7.976853e-001
6.332609497920402e-006	4.810022e+000	-7.974111e-001
6.348659970125195e-006	4.809540e+000	-7.971411e-001
6.366906952505989e-006	4.808993e+000	-7.968342e-001
6.416437362685105e-006	4.807507e+000	-7.960019e-001
6.462461610944395e-006	4.806126e+000	-7.952291e-001
6.523502742300513e-006	4.804295e+000	-7.942052e-001
6.940748665491131e-006	4.791778e+000	-7.872376e-001
7.000000000000062e-006	4.790000e+000	-7.862518e-001
7.016043648564460e-006	4.789519e+000	-7.859854e-001
7.048130945693258e-006	4.788556e+000	-7.854526e-001
7.999999999999978e-006	4.760000e+000	-7.697924e-001
8.154591925807029e-006	4.755362e+000	-7.672795e-001
8.309183851614081e-006	4.750724e+000	-7.647733e-001
8.463775777421132e-006	4.746087e+000	-7.622737e-001
8.618367703228183e-006	4.741449e+000	-7.597807e-001
8.772959629035235e-006	4.736811e+000	-7.572944e-001
8.927551554842286e-006	4.732173e+000	-7.548147e-001
9.082143480649337e-006	4.727536e+000	-7.523417e-001
1.000000000000003e-005	4.700000e+000	-7.378345e-001
1.015509562760548e-005	4.695347e+000	-7.354146e-001
1.031019125521093e-005	4.690694e+000	-7.330013e-001
1.046528688281638e-005	4.686041e+000	-7.305945e-001
1.062038251042184e-005	4.681388e+000	-7.281943e-001
1.077547813802729e-005	4.676736e+000	-7.258007e-001
1.093057376563274e-005	4.672083e+000	-7.234135e-001
1.108566939323819e-005	4.667430e+000	-7.210330e-001
1.136958870118940e-005	4.658912e+000	-7.167050e-001
1.165350800914060e-005	4.650395e+000	-7.124031e-001
1.193742731709180e-005	4.641877e+000	-7.081274e-001
1.222134662504301e-005	4.633360e+000	-7.038779e-001
1.250526593299421e-005	4.624842e+000	-6.996545e-001
1.278918524094541e-005	4.616324e+000	-6.954572e-001
1.307310454889661e-005	4.607807e+000	-6.912861e-001
1.405848363911721e-005	4.578246e+000	-6.770239e-001
1.441070217731349e-005	4.567679e+000	-6.720050e-001
1.476292071550976e-005	4.557112e+000	-6.670277e-001
1.511513925370604e-005	4.546546e+000	-6.620919e-001
1.546735779190232e-005	4.535979e+000	-6.571978e-001
1.581957633009860e-005	4.525413e+000	-6.523452e-001
1.617179486829488e-005	4.514846e+000	-6.475341e-001
1.652401340649116e-005	4.504280e+000	-6.427647e-001
1.705988724645603e-005	4.488204e+000	-6.355701e-001
1.733704621124802e-005	4.479889e+000	-6.318939e-001
1.761420517604000e-005	4.471574e+000	-6.282416e-001
1.789136414083199e-005	4.463259e+000	-6.246133e-001
1.816852310562397e-005	4.454944e+000	-6.210091e-001
1.844568207041595e-005	4.446629e+000	-6.174288e-001
1.872284103520794e-005	4.438315e+000	-6.138726e-001
1.899999999999992e-005	4.430000e+000	-6.103404e-001
1.928571428571421e-005	4.421429e+000	-6.067295e-001
1.957142857142851e-005	4.412857e+000	-6.031432e-001
1.985714285714280e-005	4.404286e+000	-5.995815e-001
2.014285714285709e-005	4.395714e+000	-5.960442e-001
2.042857142857138e-005	4.387143e+000	-5.925315e-001
2.071428571428568e-005	4.378571e+000	-5.890433e-001
2.099999999999997e-005	4.370000e+000	-5.855796e-001
2.199999999999988e-005	4.340000e+000	-5.736569e-001
2.300000000000002e-005	4.310000e+000	-5.620279e-001
2.399999999999993e-005	4.280000e+000	-5.506842e-001
2.506399999999999e-005	4.248080e+000	-5.389150e-001
2.599999999999998e-005	4.220000e+000	-5.288048e-001
2.699999999999990e-005	4.190000e+000	-5.182458e-001
2.800000000000003e-005	4.160000e+000	-5.079225e-001
2.904117747058819e-005	4.128765e+000	-4.974097e-001
2.941177470588345e-005	4.117647e+000	-4.937221e-001
2.941177570588345e-005	4.117647e+000	-4.937221e-001
2.941177770588344e-005	4.117647e+000	-4.937221e-001
2.941178170588342e-005	4.117647e+000	-4.937221e-001
2.941178470588341e-005	4.117647e+000	-4.937220e-001
2.941178494720014e-005	4.117646e+000	-4.937220e-001
2.941178542983361e-005	4.117646e+000	-4.937220e-001
2.941178639510075e-005	4.117646e+000	-4.937220e-001
2.941178832563483e-005	4.117646e+000	-4.937220e-001
2.941179218670319e-005	4.117646e+000	-4.937219e-001
2.941179990883992e-005	4.117646e+000	-4.937219e-001
2.941181535311339e-005	4.117646e+000	-4.937217e-001
2.941184624166010e-005	4.117645e+000	-4.937214e-001
2.941188241586067e-005	4.117643e+000	-4.937210e-001
2.941192843664464e-005	4.117642e+000	-4.937206e-001
2.941198452290615e-005	4.117640e+000	-4.937200e-001
2.941207617815594e-005	4.117638e+000	-4.937191e-001
2.941217738243094e-005	4.117635e+000	-4.937181e-001
2.941228332166380e-005	4.117631e+000	-4.937171e-001
2.941229587859824e-005	4.117631e+000	-4.937170e-001
2.941232099246713e-005	4.117630e+000	-4.937167e-001
2.941237122020511e-005	4.117629e+000	-4.937162e-001
2.941241593535987e-005	4.117628e+000	-4.937158e-001
2.941244359794346e-005	4.117627e+000	-4.937155e-001
2.941247611838293e-005	4.117626e+000	-4.937152e-001
2.941249851625251e-005	4.117625e+000	-4.937149e-001
2.941252337517884e-005	4.117624e+000	-4.937147e-001
2.941257309303129e-005	4.117623e+000	-4.937142e-001
2.941260857899832e-005	4.117622e+000	-4.937139e-001
2.941264660664619e-005	4.117620e+000	-4.937135e-001
2.941267544777446e-005	4.117620e+000	-4.937132e-001
2.941270648125645e-005	4.117619e+000	-4.937129e-001
2.941276854822044e-005	4.117617e+000	-4.937122e-001
2.941289268214862e-005	4.117613e+000	-4.937110e-001
2.941294896792110e-005	4.117611e+000	-4.937105e-001
2.941303545020250e-005	4.117609e+000	-4.937096e-001
2.941306909573960e-005	4.117608e+000	-4.937093e-001
2.941311025411058e-005	4.117607e+000	-4.937089e-001
2.941313399988372e-005	4.117606e+000	-4.937086e-001
2.941316215172201e-005	4.117605e+000	-4.937084e-001
2.941321845539857e-005	4.117603e+000	-4.937078e-001
2.941333106275192e-005	4.117600e+000	-4.937067e-001
2.941346675891131e-005	4.117596e+000	-4.937053e-001
2.941358998658026e-005	4.117592e+000	-4.937041e-001
2.941372313963199e-005	4.117589e+000	-4.937028e-001
2.941386519483597e-005	4.117584e+000	-4.937014e-001
2.941405461085790e-005	4.117579e+000	-4.936995e-001
2.941424119150575e-005	4.117573e+000	-4.936977e-001
2.941443593404837e-005	4.117567e+000	-4.936957e-001
2.941473521343783e-005	4.117558e+000	-4.936928e-001
2.941505221364213e-005	4.117548e+000	-4.936896e-001
2.941545706833747e-005	4.117536e+000	-4.936856e-001
2.941584435721726e-005	4.117525e+000	-4.936818e-001
2.941640074707766e-005	4.117508e+000	-4.936762e-001
2.941705775416094e-005	4.117488e+000	-4.936697e-001
2.941799125356893e-005	4.117460e+000	-4.936605e-001
2.941949849636976e-005	4.117415e+000	-4.936455e-001
2.942251298197166e-005	4.117325e+000	-4.936157e-001
2.942854195317544e-005	4.117144e+000	-4.935559e-001
2.943841092341824e-005	4.116848e+000	-4.934582e-001
2.944922892690388e-005	4.116523e+000	-4.933510e-001
2.946265280297515e-005	4.116120e+000	-4.932180e-001
2.947646748996673e-005	4.115706e+000	-4.930812e-001
2.949224352923312e-005	4.115232e+000	-4.929251e-001
2.950718741173979e-005	4.114784e+000	-4.927772e-001
2.952265327716102e-005	4.114320e+000	-4.926243e-001
2.953754691849275e-005	4.113873e+000	-4.924769e-001
2.955375632393976e-005	4.113387e+000	-4.923167e-001
2.957198824156990e-005	4.112840e+000	-4.921365e-001
2.958264256423164e-005	4.112521e+000	-4.920312e-001
2.959330136921134e-005	4.112201e+000	-4.919260e-001
2.960485717924352e-005	4.111854e+000	-4.918118e-001
2.961700246539183e-005	4.111490e+000	-4.916919e-001
2.962961235310744e-005	4.111112e+000	-4.915675e-001
2.964309026093825e-005	4.110707e+000	-4.914345e-001
2.965712917294252e-005	4.110286e+000	-4.912960e-001
2.967206697313939e-005	4.109838e+000	-4.911487e-001
2.968798244859820e-005	4.109361e+000	-4.909917e-001
2.970610399801658e-005	4.108817e+000	-4.908131e-001
2.972318757459664e-005	4.108305e+000	-4.906448e-001
2.973741137954453e-005	4.107878e+000	-4.905047e-001
2.975108629237424e-005	4.107467e+000	-4.903700e-001
2.976598853427046e-005	4.107020e+000	-4.902233e-001
2.978105794738256e-005	4.106568e+000	-4.900750e-001
2.979817514355216e-005	4.106055e+000	-4.899066e-001
2.981696465772024e-005	4.105491e+000	-4.897218e-001
2.984053936675541e-005	4.104784e+000	-4.894901e-001
2.987202804759269e-005	4.103839e+000	-4.891807e-001
2.991534094090131e-005	4.102540e+000	-4.887555e-001
2.995533265953438e-005	4.101340e+000	-4.883631e-001
2.999206317324892e-005	4.100238e+000	-4.880030e-001
2.999999999999986e-005	4.100000e+000	-4.879252e-001
3.000397819377036e-005	4.099881e+000	-4.878862e-001
3.001193458131114e-005	4.099642e+000	-4.878083e-001
3.002784735639270e-005	4.099164e+000	-4.876525e-001
3.005967290655581e-005	4.098210e+000	-4.873409e-001
3.010011173774072e-005	4.096997e+000	-4.869453e-001
3.013698349125290e-005	4.095891e+000	-4.865849e-001
3.016905037911020e-005	4.094928e+000	-4.862716e-001
3.019642698285328e-005	4.094107e+000	-4.860043e-001
3.022766614461654e-005	4.093170e+000	-4.856995e-001
3.025987938032890e-005	4.092204e+000	-4.853854e-001
3.029742604607135e-005	4.091077e+000	-4.850194e-001
3.034064465772825e-005	4.089781e+000	-4.845986e-001
3.039502368737705e-005	4.088149e+000	-4.840696e-001
3.045805762232024e-005	4.086258e+000	-4.834571e-001
3.053546185811701e-005	4.083936e+000	-4.827059e-001
3.062704659087035e-005	4.081189e+000	-4.818186e-001
3.089386139143121e-005	4.073184e+000	-4.792419e-001
3.100000000000000e-005	4.070000e+000	-4.782196e-001
3.102122727161494e-005	4.069363e+000	-4.780155e-001
3.106368181484483e-005	4.068089e+000	-4.776077e-001
3.134806181491475e-005	4.059558e+000	-4.748853e-001
3.163244181498468e-005	4.051027e+000	-4.721749e-001
3.191682181505460e-005	4.042495e+000	-4.694768e-001
3.220120181512453e-005	4.033964e+000	-4.667908e-001
3.248558181519446e-005	4.025432e+000	-4.641169e-001
3.276996181526439e-005	4.016901e+000	-4.614552e-001
3.305434181533431e-005	4.008370e+000	-4.588057e-001
3.361800727028654e-005	3.991460e+000	-4.535958e-001
3.418167272523877e-005	3.974550e+000	-4.484170e-001
3.474533818019100e-005	3.957640e+000	-4.432694e-001
3.530900363514324e-005	3.940730e+000	-4.381530e-001
3.587266909009546e-005	3.923820e+000	-4.330678e-001
3.643633454504769e-005	3.906910e+000	-4.280137e-001
3.699999999999992e-005	3.890000e+000	-4.229908e-001
3.742857142857135e-005	3.877143e+000	-4.191829e-001
3.785714285714277e-005	3.864286e+000	-4.153802e-001
3.828571428571420e-005	3.851429e+000	-4.115828e-001
3.871428571428562e-005	3.838571e+000	-4.077905e-001
3.914285714285704e-005	3.825714e+000	-4.040034e-001
3.957142857142847e-005	3.812857e+000	-4.002215e-001
3.999999999999989e-005	3.800000e+000	-3.964449e-001
4.029404986855939e-005	3.791178e+000	-3.938521e-001
4.058809973711890e-005	3.782357e+000	-3.912574e-001
4.088214960567840e-005	3.773535e+000	-3.886606e-001
4.117619947423792e-005	3.764714e+000	-3.860619e-001
4.147024934279742e-005	3.755893e+000	-3.834611e-001
4.176429921135693e-005	3.747071e+000	-3.808584e-001
4.205834907991643e-005	3.738250e+000	-3.782536e-001
4.300000000000007e-005	3.710000e+000	-3.698790e-001
4.328571428571433e-005	3.701429e+000	-3.673278e-001
4.357142857142859e-005	3.692857e+000	-3.647699e-001
4.385714285714285e-005	3.684286e+000	-3.622053e-001
4.414285714285712e-005	3.675714e+000	-3.596340e-001
4.442857142857138e-005	3.667143e+000	-3.570560e-001
4.471428571428564e-005	3.658572e+000	-3.544712e-001
4.499999999999990e-005	3.650000e+000	-3.518798e-001
4.600000000000003e-005	3.620000e+000	-3.427320e-001
4.699999999999995e-005	3.590000e+000	-3.334582e-001
4.799999999999987e-005	3.560000e+000	-3.240393e-001
4.829690211562458e-005	3.551093e+000	-3.212118e-001
4.859380423124929e-005	3.542186e+000	-3.183685e-001
4.889070634687400e-005	3.533279e+000	-3.155094e-001
4.918760846249872e-005	3.524372e+000	-3.126345e-001
4.948451057812343e-005	3.515465e+000	-3.097437e-001
4.978141269374814e-005	3.506558e+000	-3.068371e-001
5.007831480937286e-005	3.497651e+000	-3.039147e-001
5.100000000000005e-005	3.470000e+000	-2.947208e-001
5.199999999999996e-005	3.440000e+000	-2.845345e-001
5.294117647058937e-005	3.411765e+000	-2.747325e-001
5.294117747058937e-005	3.411765e+000	-2.747325e-001
5.294117947058936e-005	3.411765e+000	-2.747324e-001
5.294118347058934e-005	3.411764e+000	-2.747324e-001
5.294118647058933e-005	3.411764e+000	-2.747324e-001
5.294118663926191e-005	3.411764e+000	-2.747324e-001
5.294118697660730e-005	3.411764e+000	-2.747324e-001
5.294118765129807e-005	3.411764e+000	-2.747324e-001
5.294118900067940e-005	3.411764e+000	-2.747323e-001
5.294119169944227e-005	3.411764e+000	-2.747323e-001
5.294119709696780e-005	3.411764e+000	-2.747323e-001
5.294120438728133e-005	3.411764e+000	-2.747322e-001
5.294120944412148e-005	3.411764e+000	-2.747321e-001
5.294121456665864e-005	3.411764e+000	-2.747321e-001
5.294122088101436e-005	3.411763e+000	-2.747320e-001
5.294122741036455e-005	3.411763e+000	-2.747319e-001
5.294124046906494e-005	3.411763e+000	-2.747318e-001
5.294125229059264e-005	3.411762e+000	-2.747317e-001
5.294126782052870e-005	3.411762e+000	-2.747315e-001
5.294128375699244e-005	3.411762e+000	-2.747313e-001
5.294130502393984e-005	3.411761e+000	-2.747311e-001
5.294133038531712e-005	3.411760e+000	-2.747309e-001
5.294136930413321e-005	3.411759e+000	-2.747304e-001
5.294141568561064e-005	3.411757e+000	-2.747299e-001
5.294144071776820e-005	3.411757e+000	-2.747297e-001
5.294146532095184e-005	3.411756e+000	-2.747294e-001
5.294147393957566e-005	3.411756e+000	-2.747293e-001
5.294149386859894e-005	3.411755e+000	-2.747291e-001
5.294150657443510e-005	3.411755e+000	-2.747290e-001
5.294152489995567e-005	3.411754e+000	-2.747288e-001
5.294154470900721e-005	3.411754e+000	-2.747286e-001
5.294158150684629e-005	3.411752e+000	-2.747282e-001
5.294163119325189e-005	3.411751e+000	-2.747277e-001
5.294169208638682e-005	3.411749e+000	-2.747270e-001
5.294176659424135e-005	3.411747e+000	-2.747262e-001
5.294185578253374e-005	3.411744e+000	-2.747253e-001
5.294194885580874e-005	3.411741e+000	-2.747243e-001
5.294204848668867e-005	3.411739e+000	-2.747233e-001
5.294214784577235e-005	3.411736e+000	-2.747222e-001
5.294226743671280e-005	3.411732e+000	-2.747210e-001
5.294238591465467e-005	3.411728e+000	-2.747197e-001
5.294251799556164e-005	3.411725e+000	-2.747183e-001
5.294266199906759e-005	3.411720e+000	-2.747168e-001
5.294272891496251e-005	3.411718e+000	-2.747161e-001
5.294279024914959e-005	3.411716e+000	-2.747155e-001
5.294286269502202e-005	3.411714e+000	-2.747147e-001
5.294296180903069e-005	3.411711e+000	-2.747137e-001
5.294309847748611e-005	3.411707e+000	-2.747122e-001
5.294327957752428e-005	3.411702e+000	-2.747103e-001
5.294351515629150e-005	3.411695e+000	-2.747079e-001
5.294382260714772e-005	3.411685e+000	-2.747046e-001
5.294423203885132e-005	3.411673e+000	-2.747003e-001
5.294479395660302e-005	3.411656e+000	-2.746944e-001
