time	V(vin)	V(vout)
0.000000000000000e+00	0.000000e+00	0.000000e+00
9.999999824516700e-14	3.000000e-09	-6.738738e-09
1.003931945330939e-13	3.011796e-09	-6.751914e-09
1.011795871089477e-13	3.035388e-09	-6.751729e-09
1.510939997394476e-13	4.532820e-09	-6.739972e-09
2.010084123699475e-13	6.030252e-09	-6.728215e-09
2.509228250004474e-13	7.527685e-09	-6.716459e-09
3.008372376309474e-13	9.025117e-09	-6.704703e-09
3.507516502614473e-13	1.052255e-08	-6.692947e-09
4.006660628919472e-13	1.201998e-08	-6.681191e-09
4.505804755224470e-13	1.351741e-08	-6.669435e-09
6.090622719113758e-13	1.827187e-08	-6.632108e-09
8.022520192502946e-13	2.406756e-08	-6.586607e-09
1.018577841256317e-12	3.055733e-08	-6.535657e-09
1.299219006162558e-12	3.897657e-08	-6.469559e-09
1.640916654296826e-12	4.922750e-08	-6.389080e-09
2.114190310224142e-12	6.342571e-08	-6.277612e-09
2.763037613467276e-12	8.289113e-08	-6.124792e-09
3.909153094869447e-12	1.172746e-07	-5.854852e-09
4.452956144033628e-12	1.335887e-07	-5.726772e-09
5.074445343078406e-12	1.522334e-07	-5.580396e-09
6.317423741167963e-12	1.895227e-07	-5.287642e-09
7.514043203820886e-12	2.254213e-07	-5.005807e-09
9.999999999999999e-12	3.000000e-07	-4.420301e-09
1.007310781607707e-11	3.021932e-07	-4.403081e-09
1.021932344823120e-11	3.065797e-07	-4.368644e-09
1.109661724115600e-11	3.328985e-07	-4.162019e-09
1.226634229838908e-11	3.679903e-07	-3.886518e-09
1.460579241285522e-11	4.381738e-07	-3.335517e-09
1.831352813434915e-11	5.494059e-07	-2.462250e-09
2.234340330226476e-11	6.703021e-07	-1.513110e-09
2.768140668917126e-11	8.304422e-07	-2.558725e-10
3.429513222997379e-11	1.028854e-06	1.301831e-09
4.045444678101444e-11	1.213633e-06	2.752508e-09
4.849067893948773e-11	1.454720e-06	4.645249e-09
5.945896928505927e-11	1.783769e-06	7.228564e-09
7.165588399942595e-11	2.149676e-06	1.010125e-08
8.731259298546134e-11	2.619378e-06	1.378881e-08
1.116424776729688e-10	3.349274e-06	1.951911e-08
1.252423309311067e-10	3.757270e-06	2.272222e-08
1.399630663664519e-10	4.198892e-06	2.618932e-08
1.549812201478949e-10	4.649437e-06	2.972646e-08
1.850175277107810e-10	5.550526e-06	3.680072e-08
2.278433507353972e-10	6.835301e-06	4.688716e-08
2.741310463399556e-10	8.223931e-06	5.778886e-08
3.507150045276408e-10	1.052145e-05	7.582572e-08
4.033672233928631e-10	1.210102e-05	8.822604e-08
4.639647559696915e-10	1.391894e-05	1.024973e-07
5.323948714408241e-10	1.597185e-05	1.186128e-07
6.026355291770271e-10	1.807907e-05	1.351542e-07
7.048114469807627e-10	2.114434e-05	1.592151e-07
7.833375438941315e-10	2.350013e-05	1.777061e-07
8.579705069717090e-10	2.573911e-05	1.952793e-07
9.435024011721305e-10	2.830507e-05	2.154177e-07
1.029969940379850e-09	3.089910e-05	2.357750e-07
1.120929021628544e-09	3.362787e-05	2.571882e-07
1.214532805942382e-09	3.643598e-05	2.792220e-07
1.313296171391409e-09	3.939888e-05	3.024682e-07
1.416270224632990e-09	4.248811e-05	3.267028e-07
1.514206542344698e-09	4.542620e-05	3.497489e-07
1.633821547263128e-09	4.901464e-05	3.778919e-07
1.825654680304482e-09	5.476964e-05	4.230139e-07
2.170375885298627e-09	6.511128e-05	5.040647e-07
2.515593855168814e-09	7.546782e-05	5.851908e-07
2.770708732383995e-09	8.312126e-05	6.451065e-07
3.035297492402507e-09	9.105892e-05	7.072082e-07
3.293187522309015e-09	9.879562e-05	7.676880e-07
3.808967582122032e-09	1.142690e-04	8.885202e-07
4.281839430005595e-09	1.284552e-04	9.991545e-07
4.738629793255523e-09	1.421589e-04	1.105851e-06
5.229140315161067e-09	1.568742e-04	1.220195e-06
5.909555980073904e-09	1.772867e-04	1.378290e-06
7.270387309899579e-09	2.181116e-04	1.692818e-06
8.921081490194026e-09	2.676325e-04	2.071145e-06
1.094998628420595e-08	3.284996e-04	2.530377e-06
1.320919349353443e-08	3.962758e-04	3.032601e-06
1.613549011874221e-08	4.840647e-04	3.666499e-06
1.973879934344689e-08	5.921640e-04	4.417085e-06
2.478076847859998e-08	7.434231e-04	5.405483e-06
3.142817328713737e-08	9.428452e-04	6.601889e-06
3.808319310470286e-08	1.142496e-03	7.651471e-06
4.862676827441464e-08	1.458803e-03	9.011232e-06
6.220240472075512e-08	1.866072e-03	1.028801e-05
8.126692297127584e-08	2.438008e-03	1.137256e-05
1.017844826244850e-07	3.053535e-03	1.193279e-05
1.139011467045269e-07	3.417034e-03	1.202241e-05
1.266427517006399e-07	3.799282e-03	1.198070e-05
1.402347351927241e-07	4.207042e-03	1.188309e-05
1.480588106529764e-07	4.441764e-03	1.181608e-05
1.554614833353119e-07	4.663845e-03	1.175257e-05
1.628019724342215e-07	4.884059e-03	1.169521e-05
1.719082260406107e-07	5.157247e-03	1.163694e-05
1.871905053437213e-07	5.615715e-03	1.157041e-05
2.051024988741350e-07	6.153075e-03	1.153640e-05
2.234972289834700e-07	6.704917e-03	1.154528e-05
2.386457052649492e-07	7.159371e-03	1.158025e-05
2.530659776558870e-07	7.591979e-03	1.163054e-05
2.672676795628895e-07	8.018031e-03	1.168905e-05
2.783047046649062e-07	8.349141e-03	1.173799e-05
2.908182784098736e-07	8.724548e-03	1.179497e-05
3.025003476601209e-07	9.075010e-03	1.184812e-05
3.135988963312385e-07	9.407967e-03	1.189787e-05
3.255016547299690e-07	9.765049e-03	1.195002e-05
3.376219024734995e-07	1.012866e-02	1.200173e-05
3.502723902705754e-07	1.050817e-02	1.205427e-05
3.634864380430720e-07	1.090459e-02	1.210779e-05
3.772914091676322e-07	1.131874e-02	1.216253e-05
3.916005729774130e-07	1.174802e-02	1.221836e-05
4.065775938861668e-07	1.219733e-02	1.227617e-05
4.214523501543520e-07	1.264357e-02	1.233323e-05
4.361020275724074e-07	1.308306e-02	1.238930e-05
4.509933725730103e-07	1.352980e-02	1.244629e-05
4.645888780559752e-07	1.393767e-02	1.249839e-05
4.768895470375435e-07	1.430669e-02	1.254560e-05
4.895068463454011e-07	1.468521e-02	1.259412e-05
5.025460596743815e-07	1.507638e-02	1.264433e-05
5.166826975912723e-07	1.550048e-02	1.269885e-05
5.300779296549251e-07	1.590234e-02	1.275055e-05
5.446911497402098e-07	1.634073e-02	1.280700e-05
5.580206940095119e-07	1.674062e-02	1.285850e-05
5.719782833319145e-07	1.715935e-02	1.291244e-05
5.858543709048828e-07	1.757563e-02	1.296607e-05
6.005347149881758e-07	1.801604e-02	1.302280e-05
6.152179274180056e-07	1.845654e-02	1.307954e-05
6.317632068392363e-07	1.895290e-02	1.314346e-05
6.454991978859903e-07	1.936498e-02	1.319651e-05
6.588037816349156e-07	1.976411e-02	1.324790e-05
6.731562293190440e-07	2.019469e-02	1.330332e-05
7.039226351517308e-07	2.111768e-02	1.342212e-05
7.216839729597441e-07	2.165052e-02	1.349069e-05
7.434317137540744e-07	2.230295e-02	1.357464e-05
7.721315518454228e-07	2.316395e-02	1.368543e-05
8.063657486968331e-07	2.419097e-02	1.381757e-05
9.147189039114202e-07	2.744157e-02	1.423570e-05
3.627602494436333e-06	1.088281e-01	2.474590e-05
6.340486084961246e-06	1.902146e-01	3.497732e-05
9.053369675486160e-06	2.716011e-01	4.492996e-05
1.176625326601107e-05	3.529876e-01	5.460382e-05
1.447913685653598e-05	4.343741e-01	6.399890e-05
1.719202044706090e-05	5.157606e-01	7.311519e-05
1.990490403758580e-05	5.971471e-01	8.195271e-05
2.035771556969703e-05	6.107315e-01	8.336086e-05
2.035772556969703e-05	6.107318e-01	8.336089e-05
2.035774556969703e-05	6.107324e-01	8.336095e-05
2.035778556969704e-05	6.107336e-01	8.336108e-05
2.035782919840950e-05	6.107349e-01	8.336121e-05
2.035791645583442e-05	6.107375e-01	8.336148e-05
2.035803937897719e-05	6.107412e-01	8.336186e-05
2.035823469447369e-05	6.107470e-01	8.336247e-05
2.035855570579681e-05	6.107567e-01	8.336345e-05
2.035903869875804e-05	6.107712e-01	8.336495e-05
2.035999037054785e-05	6.107997e-01	8.336789e-05
2.036189371412748e-05	6.108568e-01	8.337377e-05
2.036570040128674e-05	6.109710e-01	8.338553e-05
2.037331377560525e-05	6.111994e-01	8.340905e-05
2.038854052424229e-05	6.116562e-01	8.345608e-05
2.060171500516076e-05	6.180515e-01	8.411255e-05
2.080901360075486e-05	6.242704e-01	8.474893e-05
2.080902360075486e-05	6.242707e-01	8.474896e-05
2.080904360075487e-05	6.242713e-01	8.474902e-05
2.080908360075487e-05	6.242725e-01	8.474914e-05
2.080912966442933e-05	6.242739e-01	8.474928e-05
2.080922179177825e-05	6.242766e-01	8.474956e-05
2.080936676265538e-05	6.242810e-01	8.475001e-05
2.080959960590586e-05	6.242880e-01	8.475072e-05
2.081001076287577e-05	6.243003e-01	8.475198e-05
2.081066073075882e-05	6.243199e-01	8.475397e-05
2.081196066652491e-05	6.243588e-01	8.475794e-05
2.081456053805709e-05	6.244368e-01	8.476590e-05
2.081976028112144e-05	6.245928e-01	8.478182e-05
2.083015976725015e-05	6.249048e-01	8.481364e-05
2.089255668402241e-05	6.267767e-01	8.500439e-05
2.097575257305209e-05	6.292726e-01	8.525846e-05
2.097576257305209e-05	6.292729e-01	8.525849e-05
2.097578257305209e-05	6.292735e-01	8.525855e-05
2.097582257305210e-05	6.292747e-01	8.525867e-05
2.097587514919543e-05	6.292763e-01	8.525883e-05
2.097598030148210e-05	6.292794e-01	8.525915e-05
2.097615774576072e-05	6.292847e-01	8.525969e-05
2.097645801545318e-05	6.292937e-01	8.526061e-05
2.097700958557621e-05	6.293103e-01	8.526229e-05
2.097793634352203e-05	6.293381e-01	8.526512e-05
2.097978985941365e-05	6.293937e-01	8.527077e-05
2.098349689119690e-05	6.295049e-01	8.528208e-05
2.099091095476339e-05	6.297273e-01	8.530469e-05
2.100573908189637e-05	6.301722e-01	8.534989e-05
2.102298532468143e-05	6.306896e-01	8.540247e-05
2.102299532468143e-05	6.306899e-01	8.540250e-05
2.102301532468143e-05	6.306905e-01	8.540256e-05
2.102305532468144e-05	6.306916e-01	8.540268e-05
2.102311505432922e-05	6.306934e-01	8.540286e-05
2.102323451362478e-05	6.306970e-01	8.540323e-05
2.102345013329746e-05	6.307035e-01	8.540389e-05
2.102383406101437e-05	6.307150e-01	8.540505e-05
2.102456629068883e-05	6.307370e-01	8.540729e-05
2.102588157629357e-05	6.307765e-01	8.541130e-05
2.102851214750305e-05	6.308554e-01	8.541931e-05
2.103377328992201e-05	6.310132e-01	8.543534e-05
2.104211929410948e-05	6.312636e-01	8.546076e-05
2.104212929410948e-05	6.312639e-01	8.546079e-05
2.104214929410948e-05	6.312645e-01	8.546086e-05
2.104218929410949e-05	6.312657e-01	8.546098e-05
2.104225689862457e-05	6.312677e-01	8.546119e-05
2.104239210765474e-05	6.312718e-01	8.546159e-05
2.104265258347223e-05	6.312796e-01	8.546239e-05
2.104314014521950e-05	6.312942e-01	8.546388e-05
2.104410403730420e-05	6.313231e-01	8.546681e-05
2.104596923454825e-05	6.313791e-01	8.547249e-05
2.104891118445930e-05	6.314673e-01	8.548146e-05
2.104892118445930e-05	6.314676e-01	8.548149e-05
2.104894118445930e-05	6.314682e-01	8.548154e-05
2.104898118445930e-05	6.314694e-01	8.548167e-05
2.104905746814804e-05	6.314718e-01	8.548190e-05
2.104921003552552e-05	6.314763e-01	8.548237e-05
2.104951517028048e-05	6.314855e-01	8.548329e-05
2.105012543979040e-05	6.315038e-01	8.548515e-05
2.105134597881023e-05	6.315404e-01	8.548887e-05
2.105135597881023e-05	6.315407e-01	8.548890e-05
2.105137597881023e-05	6.315413e-01	8.548896e-05
2.105141597881023e-05	6.315425e-01	8.548908e-05
2.105149597881024e-05	6.315449e-01	8.548933e-05
2.105165597881025e-05	6.315497e-01	8.548982e-05
2.105197597881027e-05	6.315593e-01	8.549078e-05
2.105200157894736e-05	6.315600e-01	8.549086e-05
2.105205277922152e-05	6.315616e-01	8.549102e-05
2.105215517976985e-05	6.315647e-01	8.549133e-05
2.105235998086650e-05	6.315708e-01	8.549196e-05
2.105236998086650e-05	6.315711e-01	8.549199e-05
2.105238998086650e-05	6.315717e-01	8.549205e-05
2.105242998086651e-05	6.315729e-01	8.549217e-05
2.105250998086651e-05	6.315753e-01	8.549241e-05
2.105251998086651e-05	6.315756e-01	8.549244e-05
2.105253998086651e-05	6.315762e-01	8.549251e-05
2.105257998086652e-05	6.315774e-01	8.549263e-05
2.105258998086652e-05	6.315777e-01	8.549265e-05
2.105260998086652e-05	6.315783e-01	8.549272e-05
2.105261998086652e-05	6.315786e-01	8.549275e-05
2.105262157894740e-05	6.315786e-01	8.549276e-05
2.105262477510916e-05	6.315787e-01	8.549276e-05
2.105263116743268e-05	6.315789e-01	8.549279e-05
2.105264157894740e-05	6.315792e-01	8.549281e-05
2.105264208961559e-05	6.315793e-01	8.549281e-05
2.105264311095196e-05	6.315793e-01	8.549282e-05
2.105264515362471e-05	6.315793e-01	8.549283e-05
2.105264749360191e-05	6.315794e-01	8.549284e-05
2.105265157894740e-05	6.315795e-01	8.549284e-05
2.105265198748195e-05	6.315796e-01	8.549284e-05
2.105265280455105e-05	6.315796e-01	8.549285e-05
2.105265443868925e-05	6.315796e-01	8.549285e-05
2.105265770696564e-05	6.315798e-01	8.549287e-05
2.105266307599713e-05	6.315799e-01	8.549288e-05
2.105266908621861e-05	6.315801e-01	8.549290e-05
2.105267796213769e-05	6.315804e-01	8.549292e-05
2.105268625487991e-05	6.315806e-01	8.549295e-05
2.105269833248581e-05	6.315809e-01	8.549299e-05
2.105271361429216e-05	6.315814e-01	8.549303e-05
2.105273537214745e-05	6.315821e-01	8.549310e-05
2.105276425786627e-05	6.315829e-01	8.549319e-05
2.105280795382975e-05	6.315842e-01	8.549332e-05
2.105286528493591e-05	6.315860e-01	8.549350e-05
2.105295020114448e-05	6.315885e-01	8.549375e-05
2.105299448470295e-05	6.315898e-01	8.549389e-05
2.105305136785030e-05	6.315916e-01	8.549407e-05
2.105308196432813e-05	6.315925e-01	8.549415e-05
2.105310441628968e-05	6.315931e-01	8.549423e-05
2.105314221971583e-05	6.315942e-01	8.549434e-05
2.105316542512350e-05	6.315950e-01	8.549441e-05
2.105318614069382e-05	6.315956e-01	8.549447e-05
2.105320609010666e-05	6.315962e-01	8.549453e-05
2.105326195496472e-05	6.315979e-01	8.549471e-05
2.105333644144213e-05	6.316001e-01	8.549493e-05
2.105348541439695e-05	6.316046e-01	8.549538e-05
2.105377387265869e-05	6.316132e-01	8.549626e-05
2.105389785337398e-05	6.316170e-01	8.549664e-05
2.105396173903007e-05	6.316189e-01	8.549684e-05
2.105404913450385e-05	6.316215e-01	8.549710e-05
2.105408368907892e-05	6.316225e-01	8.549721e-05
2.105411313865691e-05	6.316234e-01	8.549730e-05
2.105414562240930e-05	6.316243e-01	8.549740e-05
2.105421058991408e-05	6.316263e-01	8.549760e-05
2.105434052492364e-05	6.316302e-01	8.549799e-05
2.105457752465106e-05	6.316373e-01	8.549871e-05
2.105475969859171e-05	6.316428e-01	8.549927e-05
2.105488946160489e-05	6.316467e-01	8.549966e-05
2.105505364325610e-05	6.316516e-01	8.550016e-05
2.105522029132418e-05	6.316566e-01	8.550067e-05
2.105536802106873e-05	6.316611e-01	8.550112e-05
2.105551694103815e-05	6.316655e-01	8.550158e-05
2.105568492473558e-05	6.316705e-01	8.550208e-05
2.105591532714400e-05	6.316774e-01	8.550278e-05
2.105615908723789e-05	6.316848e-01	8.550353e-05
2.105648298374723e-05	6.316945e-01	8.550451e-05
2.105682094546686e-05	6.317046e-01	8.550554e-05
2.105728757213704e-05	6.317186e-01	8.550697e-05
2.105780347750600e-05	6.317341e-01	8.550854e-05
2.105858770490137e-05	6.317576e-01	8.551092e-05
2.105955343103849e-05	6.317866e-01	8.551386e-05
2.106139801078949e-05	6.318420e-01	8.551948e-05
2.106426455850226e-05	6.319279e-01	8.552821e-05
2.106999765392780e-05	6.320999e-01	8.554566e-05
2.107707052262189e-05	6.323121e-01	8.556719e-05
2.108669564531325e-05	6.326008e-01	8.559648e-05
2.109737465370024e-05	6.329212e-01	8.562898e-05
2.111057099267439e-05	6.333171e-01	8.566912e-05
2.112247758245209e-05	6.336743e-01	8.570534e-05
2.113299656895565e-05	6.339899e-01	8.573733e-05
2.114308651840369e-05	6.342926e-01	8.576801e-05
2.115243994169947e-05	6.345732e-01	8.579644e-05
2.116251873697475e-05	6.348755e-01	8.582707e-05
2.117388241908919e-05	6.352165e-01	8.586159e-05
2.119437741826383e-05	6.358313e-01	8.592383e-05
2.121504145864054e-05	6.364512e-01	8.598655e-05
2.122571429326184e-05	6.367714e-01	8.601893e-05
2.123596215454443e-05	6.370789e-01	8.605001e-05
2.124765262660260e-05	6.374296e-01	8.608547e-05
2.125947383049864e-05	6.377842e-01	8.612131e-05
2.127235004194761e-05	6.381705e-01	8.616035e-05
2.128546388781949e-05	6.385639e-01	8.620009e-05
2.129952491033094e-05	6.389858e-01	8.624270e-05
2.131394739495519e-05	6.394184e-01	8.628638e-05
2.132958664078031e-05	6.398876e-01	8.633374e-05
2.134691321232412e-05	6.404074e-01	8.638619e-05
2.136059807004631e-05	6.408179e-01	8.642762e-05
2.137254424893010e-05	6.411763e-01	8.646375e-05
2.138573268085290e-05	6.415720e-01	8.650363e-05
2.140092621267034e-05	6.420278e-01	8.654957e-05
2.141605281413534e-05	6.424816e-01	8.659528e-05
2.143309490104296e-05	6.429929e-01	8.664677e-05
2.145156134790454e-05	6.435468e-01	8.670253e-05
2.147444730087572e-05	6.442334e-01	8.677161e-05
2.150424848278098e-05	6.451275e-01	8.686151e-05
2.153977219586654e-05	6.461931e-01	8.696860e-05
2.157726568032987e-05	6.473179e-01	8.708154e-05
2.161920736265576e-05	6.485762e-01	8.720777e-05
2.166048881448835e-05	6.498147e-01	8.733191e-05
2.170433994698578e-05	6.511302e-01	8.746364e-05
2.174402321206066e-05	6.523207e-01	8.758275e-05
2.178834553911150e-05	6.536503e-01	8.771565e-05
2.183063933462018e-05	6.549192e-01	8.784235e-05
2.187549346957557e-05	6.562648e-01	8.797659e-05
2.191767830902354e-05	6.575304e-01	8.810272e-05
2.196115802892194e-05	6.588348e-01	8.823260e-05
2.200386063847718e-05	6.601158e-01	8.836002e-05
2.205703580485437e-05	6.617111e-01	8.851852e-05
2.211459484980846e-05	6.634378e-01	8.868987e-05
2.218588310525086e-05	6.655765e-01	8.890178e-05
2.236771216359721e-05	6.710314e-01	8.944068e-05
2.313372624891237e-05	6.940118e-01	9.167891e-05
2.389974033422753e-05	7.169922e-01	9.387224e-05
2.466575441954269e-05	7.399727e-01	9.602065e-05
2.543176850485785e-05	7.629531e-01	9.812416e-05
2.619778259017301e-05	7.859335e-01	1.001828e-04
2.696379667548817e-05	8.089139e-01	1.021964e-04
2.772981076080333e-05	8.318943e-01	1.041652e-04
3.314630742279798e-05	9.943892e-01	1.167819e-04
4.100289874060245e-05	1.230087e+00	1.307287e-04
4.151646166756525e-05	1.245494e+00	1.314238e-04
4.151647166756526e-05	1.245494e+00	1.314238e-04
4.151649166756526e-05	1.245495e+00	1.314238e-04
4.151652590387892e-05	1.245496e+00	1.314239e-04
4.151656117577841e-05	1.245497e+00	1.314239e-04
4.151663171957737e-05	1.245499e+00	1.314240e-04
4.151677280717529e-05	1.245503e+00	1.314242e-04
4.151699338942143e-05	1.245510e+00	1.314245e-04
4.151743455391371e-05	1.245523e+00	1.314251e-04
4.151831688289826e-05	1.245550e+00	1.314262e-04
4.152008154086738e-05	1.245602e+00	1.314286e-04
4.152361085680560e-05	1.245708e+00	1.314332e-04
4.153066948868206e-05	1.245920e+00	1.314426e-04
4.174242844497563e-05	1.252273e+00	1.317193e-04
4.187938693784822e-05	1.256382e+00	1.318965e-04
4.187939693784822e-05	1.256382e+00	1.318965e-04
4.187941693784822e-05	1.256382e+00	1.318965e-04
4.187945693784823e-05	1.256384e+00	1.318966e-04
4.187952090909836e-05	1.256386e+00	1.318967e-04
4.187964885159862e-05	1.256389e+00	1.318968e-04
4.187988037641884e-05	1.256396e+00	1.318971e-04
4.188030271234868e-05	1.256409e+00	1.318977e-04
4.188114738420837e-05	1.256434e+00	1.318987e-04
4.188283672792774e-05	1.256485e+00	1.319009e-04
4.188621541536650e-05	1.256586e+00	1.319053e-04
4.190479655638637e-05	1.257144e+00	1.319291e-04
4.192337769740625e-05	1.257701e+00	1.319529e-04
4.194195883842612e-05	1.258259e+00	1.319766e-04
4.196053997944600e-05	1.258816e+00	1.320003e-04
4.197912112046588e-05	1.259374e+00	1.320240e-04
4.199770226148575e-05	1.259931e+00	1.320476e-04
4.201628340250562e-05	1.260489e+00	1.320713e-04
4.205455988780767e-05	1.261637e+00	1.321198e-04
4.205456988780767e-05	1.261637e+00	1.321198e-04
4.205458988780768e-05	1.261638e+00	1.321199e-04
4.205462988780768e-05	1.261639e+00	1.321199e-04
4.205469678059630e-05	1.261641e+00	1.321200e-04
4.205483056617352e-05	1.261645e+00	1.321202e-04
4.205507835647617e-05	1.261652e+00	1.321205e-04
4.205554072965544e-05	1.261666e+00	1.321211e-04
4.205646547601397e-05	1.261694e+00	1.321222e-04
4.205831496873105e-05	1.261750e+00	1.321246e-04
4.206201395416521e-05	1.261860e+00	1.321293e-04
4.206941192503351e-05	1.262082e+00	1.321386e-04
4.208420786677012e-05	1.262526e+00	1.321573e-04
4.208421786677012e-05	1.262527e+00	1.321573e-04
4.208423786677012e-05	1.262527e+00	1.321574e-04
4.208427786677013e-05	1.262528e+00	1.321574e-04
4.208434783288251e-05	1.262530e+00	1.321575e-04
4.208448776510728e-05	1.262535e+00	1.321577e-04
4.208475316134593e-05	1.262543e+00	1.321580e-04
4.208525740657150e-05	1.262558e+00	1.321586e-04
4.208626589702262e-05	1.262588e+00	1.321599e-04
4.208828287792487e-05	1.262648e+00	1.321625e-04
4.209231683972938e-05	1.262769e+00	1.321676e-04
4.209719523428569e-05	1.262916e+00	1.321737e-04
4.209720523428569e-05	1.262916e+00	1.321737e-04
4.209722523428569e-05	1.262917e+00	1.321737e-04
4.209726523428569e-05	1.262918e+00	1.321738e-04
