time	V(sin32)	V(vout)
0.000000000000000e+000	2.858692e+000	1.512536e+000
1.006490561789985e-006	2.828521e+000	1.497433e+000
1.775157928991583e-006	2.789748e+000	1.485624e+000
1.775158928991579e-006	2.789748e+000	1.485624e+000
1.775160928991571e-006	2.789748e+000	1.485624e+000
1.775164928991555e-006	2.789748e+000	1.485624e+000
1.775167928991543e-006	2.789747e+000	1.485623e+000
1.775168170308275e-006	2.789747e+000	1.485623e+000
1.775168652941740e-006	2.789747e+000	1.485623e+000
1.775169618208885e-006	2.789747e+000	1.485623e+000
1.775171548742960e-006	2.789747e+000	1.485623e+000
1.775175409811326e-006	2.789747e+000	1.485623e+000
1.775183131947841e-006	2.789747e+000	1.485623e+000
1.775198576221089e-006	2.789746e+000	1.485623e+000
1.775229464767584e-006	2.789744e+000	1.485623e+000
1.775265638946904e-006	2.789742e+000	1.485622e+000
1.775311659698350e-006	2.789740e+000	1.485621e+000
1.775367745894150e-006	2.789737e+000	1.485620e+000
1.775458990040503e-006	2.789733e+000	1.485619e+000
1.775557725850613e-006	2.789728e+000	1.485618e+000
1.775660949476657e-006	2.789723e+000	1.485616e+000
1.775733025031600e-006	2.789719e+000	1.485615e+000
1.775813085997269e-006	2.789715e+000	1.485613e+000
1.775844308589056e-006	2.789713e+000	1.485613e+000
1.775873828466917e-006	2.789712e+000	1.485613e+000
1.775905866854702e-006	2.789710e+000	1.485612e+000
1.775969943630272e-006	2.789707e+000	1.485611e+000
1.776002858042136e-006	2.789705e+000	1.485611e+000
1.776038761454107e-006	2.789704e+000	1.485610e+000
1.776074435239214e-006	2.789702e+000	1.485609e+000
1.776145782809643e-006	2.789698e+000	1.485608e+000
1.776288477950286e-006	2.789691e+000	1.485606e+000
1.776345701540736e-006	2.789688e+000	1.485605e+000
1.776430434368261e-006	2.789684e+000	1.485604e+000
1.776460721547276e-006	2.789682e+000	1.485603e+000
1.776500720975741e-006	2.789680e+000	1.485603e+000
1.776524586731467e-006	2.789679e+000	1.485602e+000
1.776558756995958e-006	2.789677e+000	1.485602e+000
1.776627097524724e-006	2.789674e+000	1.485601e+000
1.776763778582472e-006	2.789667e+000	1.485599e+000
1.776919669378404e-006	2.789659e+000	1.485596e+000
1.777063829330825e-006	2.789652e+000	1.485594e+000
1.777196673565353e-006	2.789645e+000	1.485592e+000
1.777372904078175e-006	2.789636e+000	1.485589e+000
1.777528241618748e-006	2.789629e+000	1.485587e+000
1.777711032488645e-006	2.789619e+000	1.485584e+000
1.777947273289005e-006	2.789607e+000	1.485580e+000
1.778316529426607e-006	2.789589e+000	1.485575e+000
1.778653808733738e-006	2.789572e+000	1.485569e+000
1.779073847877613e-006	2.789551e+000	1.485563e+000
1.779518119483878e-006	2.789528e+000	1.485556e+000
1.780187038225673e-006	2.789494e+000	1.485546e+000
1.780984821218986e-006	2.789454e+000	1.485533e+000
1.782193484873174e-006	2.789393e+000	1.485515e+000
1.784610812181550e-006	2.789271e+000	1.485477e+000
1.789445466798085e-006	2.789027e+000	1.485402e+000
1.799114776031372e-006	2.788540e+000	1.485252e+000
1.809029093598593e-006	2.788039e+000	1.485098e+000
1.822431329851241e-006	2.787364e+000	1.484890e+000
1.835452860865722e-006	2.786707e+000	1.484687e+000
1.851401736651086e-006	2.785902e+000	1.484439e+000
1.865995049292295e-006	2.785166e+000	1.484213e+000
1.881803222178674e-006	2.784369e+000	1.483967e+000
1.896369748144357e-006	2.783634e+000	1.483740e+000
1.912331370162177e-006	2.782829e+000	1.483492e+000
1.929148595126561e-006	2.781981e+000	1.483230e+000
1.941808903331566e-006	2.781342e+000	1.483032e+000
1.952112183102378e-006	2.780822e+000	1.482872e+000
1.964373962261897e-006	2.780204e+000	1.482681e+000
1.976058491227591e-006	2.779614e+000	1.482499e+000
1.989311529923153e-006	2.778946e+000	1.482292e+000
2.000000000000049e-006	2.778407e+000	1.482125e+000
2.001302587653891e-006	2.778353e+000	1.482105e+000
2.003907762961358e-006	2.778247e+000	1.482064e+000
2.009118113576510e-006	2.778034e+000	1.481983e+000
2.019538814806814e-006	2.777607e+000	1.481820e+000
2.036286380286204e-006	2.776922e+000	1.481559e+000
2.054610465539696e-006	2.776172e+000	1.481272e+000
2.070962034357625e-006	2.775504e+000	1.481017e+000
2.088553406681508e-006	2.774784e+000	1.480742e+000
2.103269368656331e-006	2.774182e+000	1.480512e+000
2.117133131875797e-006	2.773615e+000	1.480295e+000
2.132053756278684e-006	2.773004e+000	1.480061e+000
2.147391227781811e-006	2.772377e+000	1.479821e+000
2.164815397985055e-006	2.771664e+000	1.479548e+000
2.184592729250140e-006	2.770855e+000	1.479238e+000
2.210914522838637e-006	2.769778e+000	1.478825e+000
2.249697478630798e-006	2.768191e+000	1.478216e+000
2.290377098808621e-006	2.766527e+000	1.477577e+000
2.328420085655290e-006	2.764971e+000	1.476979e+000
2.365082111693145e-006	2.763471e+000	1.476402e+000
2.400009366841779e-006	2.762042e+000	1.475852e+000
2.437164720914308e-006	2.760522e+000	1.475266e+000
2.476213774424765e-006	2.758924e+000	1.474650e+000
2.514230546849525e-006	2.757369e+000	1.474049e+000
2.548140840574233e-006	2.755982e+000	1.473513e+000
2.576898737933044e-006	2.754805e+000	1.473058e+000
2.609680031043834e-006	2.753464e+000	1.472539e+000
2.644212318088021e-006	2.752052e+000	1.471991e+000
2.684590493621207e-006	2.750400e+000	1.471351e+000
2.727590935435245e-006	2.748641e+000	1.470668e+000
2.781178152115767e-006	2.746448e+000	1.469816e+000
2.843116730336104e-006	2.743914e+000	1.468830e+000
2.919907328057404e-006	2.740773e+000	1.467605e+000
2.999999999999965e-006	2.737496e+000	1.466326e+000
3.009022095928817e-006	2.737121e+000	1.466182e+000
3.027066287786739e-006	2.736372e+000	1.465893e+000
3.166056818102902e-006	2.730596e+000	1.463663e+000
3.305047348419065e-006	2.724821e+000	1.461426e+000
3.444037878735228e-006	2.719046e+000	1.459183e+000
3.583028409051392e-006	2.713271e+000	1.456933e+000
3.722018939367555e-006	2.707496e+000	1.454677e+000
3.861009469683718e-006	2.701722e+000	1.452415e+000
3.999999999999880e-006	2.695947e+000	1.450145e+000
4.145632840956608e-006	2.688239e+000	1.447757e+000
4.291265681913336e-006	2.680565e+000	1.445361e+000
4.436898522870063e-006	2.672927e+000	1.442957e+000
4.582531363826791e-006	2.665322e+000	1.440546e+000
4.728164204783518e-006	2.657753e+000	1.438128e+000
4.873797045740246e-006	2.650217e+000	1.435702e+000
5.019429886696973e-006	2.642717e+000	1.433269e+000
5.201027895159895e-006	2.637496e+000	1.430223e+000
5.382625903622817e-006	2.631926e+000	1.427165e+000
5.564223912085739e-006	2.626007e+000	1.424096e+000
5.745821920548661e-006	2.619739e+000	1.421015e+000
5.927419929011582e-006	2.613122e+000	1.417923e+000
6.109017937474504e-006	2.606156e+000	1.414820e+000
6.290615945937425e-006	2.598840e+000	1.411705e+000
6.534813667946361e-006	2.588320e+000	1.407497e+000
6.779011389955298e-006	2.577774e+000	1.403269e+000
7.023209111964234e-006	2.567204e+000	1.399022e+000
7.267406833973170e-006	2.556609e+000	1.394756e+000
7.511604555982106e-006	2.545990e+000	1.390471e+000
7.755802277991043e-006	2.535345e+000	1.386166e+000
7.999999999999978e-006	2.524676e+000	1.381842e+000
8.156637405659056e-006	2.518029e+000	1.379055e+000
8.313274811318136e-006	2.511239e+000	1.376262e+000
8.469912216977215e-006	2.504305e+000	1.373461e+000
8.626549622636295e-006	2.497228e+000	1.370654e+000
8.783187028295373e-006	2.490008e+000	1.367840e+000
8.939824433954453e-006	2.482644e+000	1.365020e+000
9.096461839613532e-006	2.475137e+000	1.362193e+000
9.234277026698781e-006	2.467188e+000	1.359696e+000
9.372092213784031e-006	2.459390e+000	1.357194e+000
9.509907400869280e-006	2.451741e+000	1.354686e+000
9.647722587954530e-006	2.444241e+000	1.352174e+000
9.785537775039779e-006	2.436891e+000	1.349656e+000
9.923352962125029e-006	2.429690e+000	1.347132e+000
1.006116814921028e-005	2.422639e+000	1.344604e+000
1.021163036446204e-005	2.417781e+000	1.341835e+000
1.036209257971379e-005	2.412780e+000	1.339061e+000
1.051255479496555e-005	2.407637e+000	1.336280e+000
1.066301701021731e-005	2.402351e+000	1.333493e+000
1.081347922546907e-005	2.396924e+000	1.330700e+000
1.096394144072083e-005	2.391354e+000	1.327901e+000
1.111440365597258e-005	2.385642e+000	1.325096e+000
1.140477283684550e-005	2.372165e+000	1.319662e+000
1.169514201771842e-005	2.358823e+000	1.314207e+000
1.198551119859134e-005	2.345615e+000	1.308731e+000
1.227588037946426e-005	2.332540e+000	1.303234e+000
1.256624956033718e-005	2.319600e+000	1.297715e+000
1.285661874121010e-005	2.306794e+000	1.292176e+000
1.314698792208302e-005	2.294122e+000	1.286615e+000
1.329153317635435e-005	2.290218e+000	1.283838e+000
1.343607843062569e-005	2.285756e+000	1.281057e+000
1.358062368489702e-005	2.280737e+000	1.278272e+000
1.372516893916836e-005	2.275160e+000	1.275482e+000
1.386971419343969e-005	2.269026e+000	1.272687e+000
1.401425944771103e-005	2.262334e+000	1.269888e+000
1.415880470198236e-005	2.255085e+000	1.267084e+000
1.479289940828159e-005	2.217900e+000	1.254728e+000
1.479290040828159e-005	2.217900e+000	1.254728e+000
1.479290240828158e-005	2.217900e+000	1.254728e+000
1.479290640828157e-005	2.217899e+000	1.254728e+000
1.479290940828155e-005	2.217899e+000	1.254728e+000
1.479290957695414e-005	2.217899e+000	1.254728e+000
1.479290991429952e-005	2.217899e+000	1.254728e+000
1.479291058899030e-005	2.217899e+000	1.254728e+000
1.479291193837162e-005	2.217899e+000	1.254728e+000
1.479291463713449e-005	2.217899e+000	1.254728e+000
1.479292003466002e-005	2.217899e+000	1.254728e+000
1.479292751754499e-005	2.217898e+000	1.254728e+000
1.479293263945700e-005	2.217898e+000	1.254727e+000
1.479293777929044e-005	2.217897e+000	1.254727e+000
1.479294427408646e-005	2.217897e+000	1.254727e+000
1.479295092784473e-005	2.217897e+000	1.254727e+000
1.479296257492734e-005	2.217896e+000	1.254727e+000
1.479297532238602e-005	2.217895e+000	1.254727e+000
1.479298980084200e-005	2.217894e+000	1.254726e+000
1.479300641997082e-005	2.217893e+000	1.254726e+000
1.479302671398078e-005	2.217892e+000	1.254726e+000
1.479305249897970e-005	2.217891e+000	1.254725e+000
1.479308988173609e-005	2.217889e+000	1.254724e+000
1.479313617940709e-005	2.217886e+000	1.254724e+000
1.479316279527436e-005	2.217884e+000	1.254723e+000
1.479317848959933e-005	2.217883e+000	1.254723e+000
1.479319716649031e-005	2.217882e+000	1.254722e+000
1.479321759224471e-005	2.217881e+000	1.254722e+000
1.479323019640440e-005	2.217880e+000	1.254722e+000
1.479324919727971e-005	2.217879e+000	1.254721e+000
1.479326948177493e-005	2.217878e+000	1.254721e+000
1.479330892623868e-005	2.217876e+000	1.254720e+000
1.479335775211627e-005	2.217873e+000	1.254719e+000
1.479341958147691e-005	2.217869e+000	1.254718e+000
1.479349678839789e-005	2.217865e+000	1.254716e+000
1.479358584033385e-005	2.217860e+000	1.254715e+000
1.479367865185621e-005	2.217854e+000	1.254713e+000
1.479377816269003e-005	2.217848e+000	1.254711e+000
1.479387871652633e-005	2.217842e+000	1.254709e+000
1.479399825973326e-005	2.217835e+000	1.254707e+000
1.479411715700897e-005	2.217828e+000	1.254704e+000
1.479424900847448e-005	2.217821e+000	1.254702e+000
1.479439456494565e-005	2.217812e+000	1.254699e+000
1.479447560501592e-005	2.217807e+000	1.254697e+000
1.479454892589719e-005	2.217803e+000	1.254696e+000
1.479463256752228e-005	2.217798e+000	1.254694e+000
1.479474756561775e-005	2.217791e+000	1.254692e+000
1.479490291475603e-005	2.217782e+000	1.254689e+000
1.479510903600002e-005	2.217770e+000	1.254685e+000
1.479537516780043e-005	2.217755e+000	1.254680e+000
1.479572669193835e-005	2.217734e+000	1.254673e+000
1.479620076683076e-005	2.217706e+000	1.254664e+000
1.479676822496484e-005	2.217673e+000	1.254653e+000
1.479734985540006e-005	2.217639e+000	1.254641e+000
1.479807020785657e-005	2.217597e+000	1.254627e+000
1.479901239642483e-005	2.217541e+000	1.254609e+000
1.480047059700075e-005	2.217456e+000	1.254580e+000
1.480234832717500e-005	2.217346e+000	1.254543e+000
1.480452775597845e-005	2.217218e+000	1.254501e+000
1.480713285269622e-005	2.217065e+000	1.254450e+000
1.481041800389157e-005	2.216872e+000	1.254386e+000
1.481479734706265e-005	2.216616e+000	1.254300e+000
1.482104651345036e-005	2.216249e+000	1.254178e+000
1.483099435699645e-005	2.215666e+000	1.253983e+000
1.484488740423752e-005	2.214851e+000	1.253711e+000
1.486072862021603e-005	2.213922e+000	1.253401e+000
1.487685630120381e-005	2.212976e+000	1.253086e+000
1.489256749483831e-005	2.212055e+000	1.252778e+000
1.490788155386353e-005	2.211157e+000	1.252478e+000
1.492336059434867e-005	2.210249e+000	1.252175e+000
1.494027693506057e-005	2.209257e+000	1.251844e+000
1.495604548902899e-005	2.208332e+000	1.251535e+000
1.496575357163828e-005	2.207763e+000	1.251345e+000
1.497634805443324e-005	2.207142e+000	1.251138e+000
1.498793301468477e-005	2.206462e+000	1.250911e+000
1.500000000000004e-005	2.205755e+000	1.250674e+000
1.500120863904501e-005	2.205698e+000	1.250650e+000
1.500362591713494e-005	2.205583e+000	1.250603e+000
1.500846047331459e-005	2.205354e+000	1.250508e+000
1.501812958567390e-005	2.204896e+000	1.250319e+000
1.503153482767475e-005	2.204261e+000	1.250056e+000
1.504638329687265e-005	2.203558e+000	1.249765e+000
1.506039614353107e-005	2.202895e+000	1.249490e+000
1.507425858517336e-005	2.202238e+000	1.249218e+000
1.509062729608112e-005	2.201463e+000	1.248897e+000
1.510655008520045e-005	2.200709e+000	1.248585e+000
1.512304256756462e-005	2.199928e+000	1.248261e+000
1.513503954613860e-005	2.199360e+000	1.248026e+000
1.514437879429772e-005	2.198918e+000	1.247843e+000
1.515498656552206e-005	2.198415e+000	1.247635e+000
1.518929237275240e-005	2.196791e+000	1.246961e+000
1.520219507919235e-005	2.196180e+000	1.246708e+000
1.521514358041758e-005	2.195567e+000	1.246453e+000
1.522890264782210e-005	2.194915e+000	1.246183e+000
1.524284117688417e-005	2.194255e+000	1.245909e+000
1.525780000389307e-005	2.193547e+000	1.245615e+000
1.527128409389497e-005	2.192908e+000	1.245350e+000
1.531761538689697e-005	2.190714e+000	1.244440e+000
1.537474255335113e-005	2.188009e+000	1.243316e+000
1.546406504572953e-005	2.183779e+000	1.241558e+000
1.555338753810794e-005	2.179549e+000	1.239798e+000
1.564271003048634e-005	2.175319e+000	1.238037e+000
1.573203252286474e-005	2.171090e+000	1.236275e+000
1.582135501524315e-005	2.166860e+000	1.234510e+000
1.591067750762155e-005	2.162630e+000	1.232745e+000
1.599999999999996e-005	2.158400e+000	1.230978e+000
1.605836181392734e-005	2.155607e+000	1.229822e+000
1.705288947146744e-005	2.107990e+000	1.210036e+000
1.733748914862753e-005	2.093726e+000	1.204341e+000
1.762208882578762e-005	2.080175e+000	1.198634e+000
1.790668850294772e-005	2.067336e+000	1.192915e+000
1.819128818010781e-005	2.055208e+000	1.187184e+000
1.847588785726790e-005	2.043793e+000	1.181440e+000
1.876048753442799e-005	2.033090e+000	1.175685e+000
1.904508721158808e-005	2.023099e+000	1.169917e+000
1.919899172482968e-005	2.013421e+000	1.166793e+000
1.935289623807127e-005	2.003894e+000	1.163667e+000
1.950680075131287e-005	1.994518e+000	1.160538e+000
1.966070526455447e-005	1.985294e+000	1.157406e+000
1.981460977779606e-005	1.976222e+000	1.154271e+000
1.996851429103766e-005	1.967300e+000	1.151133e+000
2.012241880427926e-005	1.958530e+000	1.147993e+000
2.103798107285057e-005	1.913266e+000	1.129257e+000
2.200991460523955e-005	1.864669e+000	1.109280e+000
2.300838739151853e-005	1.802178e+000	1.088682e+000
2.399999999999993e-005	1.764544e+000	1.068168e+000
2.504377871850373e-005	1.711349e+000	1.046533e+000
2.544379698224603e-005	1.690854e+000	1.038235e+000
2.544379798224603e-005	1.690854e+000	1.038235e+000
2.544379998224602e-005	1.690853e+000	1.038235e+000
2.544380398224601e-005	1.690853e+000	1.038235e+000
2.544380698224599e-005	1.690853e+000	1.038235e+000
2.544380722356273e-005	1.690853e+000	1.038235e+000
2.544380770619619e-005	1.690853e+000	1.038235e+000
2.544380867146334e-005	1.690853e+000	1.038235e+000
2.544381060199741e-005	1.690853e+000	1.038235e+000
2.544381446306556e-005	1.690853e+000	1.038235e+000
2.544382218520186e-005	1.690852e+000	1.038235e+000
2.544383762947467e-005	1.690852e+000	1.038234e+000
2.544386851802030e-005	1.690850e+000	1.038234e+000
2.544390469269640e-005	1.690848e+000	1.038233e+000
2.544395071408514e-005	1.690846e+000	1.038232e+000
2.544400680145817e-005	1.690843e+000	1.038231e+000
2.544410158285900e-005	1.690838e+000	1.038229e+000
2.544420995509314e-005	1.690832e+000	1.038227e+000
2.544430961897467e-005	1.690827e+000	1.038225e+000
2.544432207774632e-005	1.690827e+000	1.038224e+000
2.544434699528982e-005	1.690825e+000	1.038224e+000
2.544439683037684e-005	1.690823e+000	1.038223e+000
2.544449532482923e-005	1.690818e+000	1.038221e+000
2.544455740982133e-005	1.690815e+000	1.038219e+000
2.544459932105254e-005	1.690812e+000	1.038218e+000
2.544462439911630e-005	1.690811e+000	1.038218e+000
2.544464805894560e-005	1.690810e+000	1.038218e+000
2.544467342058699e-005	1.690809e+000	1.038217e+000
2.544472414386999e-005	1.690806e+000	1.038216e+000
2.544482559043598e-005	1.690801e+000	1.038214e+000
2.544488725929935e-005	1.690798e+000	1.038213e+000
2.544494883222645e-005	1.690795e+000	1.038211e+000
2.544499301658770e-005	1.690792e+000	1.038210e+000
2.544501456839621e-005	1.690791e+000	1.038210e+000
2.544504298897178e-005	1.690790e+000	1.038209e+000
2.544506382926156e-005	1.690789e+000	1.038209e+000
2.544508986948623e-005	1.690787e+000	1.038208e+000
2.544514194993534e-005	1.690785e+000	1.038207e+000
2.544524611083378e-005	1.690779e+000	1.038205e+000
2.544537750457537e-005	1.690773e+000	1.038202e+000
2.544552149547248e-005	1.690765e+000	1.038199e+000
2.544569379930514e-005	1.690756e+000	1.038196e+000
2.544590529596344e-005	1.690746e+000	1.038191e+000
2.544618460708433e-005	1.690731e+000	1.038186e+000
2.544645413611645e-005	1.690717e+000	1.038180e+000
2.544674284603115e-005	1.690703e+000	1.038174e+000
2.544712588418443e-005	1.690683e+000	1.038166e+000
2.544753313852275e-005	1.690662e+000	1.038158e+000
2.544792234157687e-005	1.690642e+000	1.038150e+000
2.544844473677949e-005	1.690616e+000	1.038139e+000
2.544913575620910e-005	1.690580e+000	1.038124e+000
2.545008480269611e-005	1.690531e+000	1.038105e+000
2.545171256879315e-005	1.690448e+000	1.038071e+000
2.545496810098745e-005	1.690281e+000	1.038003e+000
2.546147916537584e-005	1.689948e+000	1.037868e+000
2.547117357230909e-005	1.689451e+000	1.037667e+000
2.548236460539369e-005	1.688878e+000	1.037435e+000
2.549573205539585e-005	1.688193e+000	1.037158e+000
2.551022220516406e-005	1.687450e+000	1.036857e+000
2.552607760837231e-005	1.686638e+000	1.036528e+000
2.554149925410986e-005	1.685848e+000	1.036208e+000
2.555687073610077e-005	1.685060e+000	1.035889e+000
2.557192425658907e-005	1.684289e+000	1.035577e+000
2.558809199653409e-005	1.683460e+000	1.035241e+000
2.560719173899705e-005	1.682482e+000	1.034845e+000
2.561763297016383e-005	1.681947e+000	1.034628e+000
2.562832431762373e-005	1.681399e+000	1.034407e+000
2.564003034193920e-005	1.680799e+000	1.034164e+000
2.565230571107487e-005	1.680170e+000	1.033909e+000
2.566514018374744e-005	1.679513e+000	1.033643e+000
2.567877164067855e-005	1.678814e+000	1.033360e+000
2.569305358866196e-005	1.678083e+000	1.033063e+000
2.570825299792550e-005	1.677304e+000	1.032748e+000
2.572463146335749e-005	1.676465e+000	1.032408e+000
2.574369125706282e-005	1.675488e+000	1.032013e+000
2.576085675050680e-005	1.674609e+000	1.031657e+000
2.577369710936609e-005	1.673951e+000	1.031390e+000
2.578691098047820e-005	1.673274e+000	1.031116e+000
2.580175078334412e-005	1.672513e+000	1.030808e+000
2.581706855030240e-005	1.671729e+000	1.030490e+000
2.583137759978177e-005	1.670996e+000	1.030193e+000
2.584432700144623e-005	1.670332e+000	1.029924e+000
2.585878696881446e-005	1.669591e+000	1.029624e+000
2.587201304250146e-005	1.668913e+000	1.029350e+000
2.588723659942369e-005	1.668133e+000	1.029034e+000
2.590314557583727e-005	1.667318e+000	1.028704e+000
2.592339588588935e-005	1.666281e+000	1.028284e+000
2.594837602858916e-005	1.665001e+000	1.027765e+000
2.598119313670586e-005	1.663320e+000	1.027084e+000
2.599999999999998e-005	1.662356e+000	1.026694e+000
2.600427635745172e-005	1.662135e+000	1.026605e+000
2.601282907235521e-005	1.661694e+000	1.026428e+000
2.602993450216218e-005	1.660811e+000	1.026073e+000
2.606414536177634e-005	1.659044e+000	1.025363e+000
