time	V(vin)	V(vout)
0.000000000000000e+00	0.000000e+00	0.000000e+00
1.124999980258129e-13	1.000000e+00	-9.264227e-06
1.364116154345336e-13	1.000000e+00	-4.979843e-06
5.526856178556702e-13	1.000000e+00	-6.646240e-09
9.967112204382159e-13	1.000000e+00	-6.541660e-09
1.884762425603307e-12	1.000000e+00	-6.332499e-09
3.377412423655817e-12	1.000000e+00	-5.980938e-09
9.999999999999999e-12	1.000000e+00	-4.421135e-09
1.275974568441818e-11	1.000000e+00	-3.771138e-09
1.551949136883636e-11	1.000000e+00	-3.121141e-09
1.827923705325455e-11	1.000000e+00	-2.471145e-09
2.103898273767273e-11	1.000000e+00	-1.821148e-09
2.379872842209091e-11	1.000000e+00	-1.171151e-09
2.655847410650909e-11	1.000000e+00	-5.211539e-10
2.931821979092727e-11	1.000000e+00	1.288430e-10
4.894307799123432e-11	1.000000e+00	4.751042e-09
8.819279439184844e-11	1.000000e+00	1.399542e-08
1.666922271930767e-10	1.000000e+00	3.248411e-08
2.529225272192046e-10	1.000000e+00	5.279340e-08
3.446828856216821e-10	1.000000e+00	7.440467e-08
5.011605584918537e-10	1.000000e+00	1.112566e-07
6.615958547087275e-10	1.000000e+00	1.490373e-07
9.824664471424751e-10	1.000000e+00	2.245810e-07
1.605660539207777e-09	1.000000e+00	3.711957e-07
2.832391067814626e-09	1.000000e+00	6.590856e-07
5.285852125028323e-09	1.000000e+00	1.229866e-06
1.019277423945572e-08	1.000000e+00	2.337571e-06
2.000661846831051e-08	1.000000e+00	4.412665e-06
3.051421871727134e-08	9.999999e-01	6.379550e-06
4.241622647183973e-08	9.999999e-01	8.219616e-06
5.440649977689844e-08	9.999999e-01	9.616239e-06
7.098125547196723e-08	9.999998e-01	1.088324e-05
9.097072676261592e-08	9.999996e-01	1.168678e-05
1.142345292554933e-07	9.999994e-01	1.196547e-05
1.434478902881497e-07	9.999991e-01	1.187147e-05
1.785203250658509e-07	9.999986e-01	1.164505e-05
2.103715913507462e-07	9.999980e-01	1.155325e-05
2.516247397841476e-07	9.999972e-01	1.162635e-05
3.034374496002166e-07	9.999959e-01	1.183743e-05
3.890119331263903e-07	9.999933e-01	1.220561e-05
4.739052139020674e-07	9.999900e-01	1.253889e-05
6.274768927416455e-07	9.999825e-01	1.312605e-05
7.669842126129063e-07	9.999739e-01	1.366534e-05
9.418110692146812e-07	9.999606e-01	1.433961e-05
1.000000000000000e-06	9.999556e-01	1.456406e-05
1.027267192614877e-06	9.999532e-01	1.466949e-05
1.081801577844631e-06	9.999480e-01	1.488004e-05
1.190870348304139e-06	9.999370e-01	1.530051e-05
1.409007889223156e-06	9.999118e-01	1.614066e-05
1.845282971061189e-06	9.998488e-01	1.781958e-05
2.000000000000000e-06	9.998224e-01	1.841446e-05
2.084107525083043e-06	9.998071e-01	1.873748e-05
2.252322575249129e-06	9.997747e-01	1.938313e-05
2.588752675581301e-06	9.997024e-01	2.067298e-05
3.000000000000000e-06	9.996003e-01	2.224797e-05
3.140328826704081e-06	9.995620e-01	2.278435e-05
3.327433928976189e-06	9.995083e-01	2.349879e-05
3.701644133520405e-06	9.993915e-01	2.492584e-05
4.000000000000000e-06	9.992895e-01	2.606227e-05
4.224526122726529e-06	9.992075e-01	2.691544e-05
4.523894286361902e-06	9.990912e-01	2.805104e-05
5.059873632727075e-06	9.988632e-01	3.008069e-05
5.419115429089522e-06	9.986960e-01	3.143583e-05
6.095797812363320e-06	9.983501e-01	3.398110e-05
6.524697690577137e-06	9.981099e-01	3.558780e-05
6.953597568790955e-06	9.978533e-01	3.718866e-05
7.382497447004771e-06	9.975804e-01	3.878367e-05
7.811397325218588e-06	9.972912e-01	4.037283e-05
8.240297203432406e-06	9.969857e-01	4.195614e-05
8.669197081646222e-06	9.966640e-01	4.353361e-05
9.098096959860039e-06	9.963259e-01	4.510523e-05
1.065551310845146e-05	9.949605e-01	5.077574e-05
1.221292925704289e-05	9.933817e-01	5.632537e-05
1.377034540563431e-05	9.915896e-01	6.175412e-05
1.532776155422574e-05	9.895840e-01	6.706197e-05
1.688517770281716e-05	9.873651e-01	7.224894e-05
1.844259385140858e-05	9.849329e-01	7.731503e-05
2.000001000000000e-05	9.822872e-01	8.226022e-05
2.000001280000000e-05	9.822872e-01	8.226023e-05
2.000001600000000e-05	9.822872e-01	8.226025e-05
2.000002000000000e-05	9.822872e-01	8.226025e-05
2.000095617142880e-05	9.822856e-01	8.226317e-05
2.000189234285759e-05	9.822839e-01	8.226608e-05
2.000282851428639e-05	9.822823e-01	8.226900e-05
2.000376468571518e-05	9.822806e-01	8.227191e-05
2.000470085714398e-05	9.822790e-01	8.227483e-05
2.000563702857277e-05	9.822773e-01	8.227774e-05
2.000657320000157e-05	9.822757e-01	8.228065e-05
2.001312680000314e-05	9.822640e-01	8.230106e-05
2.002623400000628e-05	9.822409e-01	8.234184e-05
2.005244840001255e-05	9.821945e-01	8.242339e-05
2.009955087705251e-05	9.821110e-01	8.256984e-05
2.012614087123308e-05	9.820638e-01	8.265244e-05
2.014133515362198e-05	9.820368e-01	8.269961e-05
2.017029455036568e-05	9.819852e-01	8.278948e-05
2.022821334385308e-05	9.818820e-01	8.296906e-05
2.028379624774951e-05	9.817826e-01	8.314119e-05
2.039496205554239e-05	9.815829e-01	8.348480e-05
2.052770591677059e-05	9.813432e-01	8.389413e-05
2.070184517841214e-05	9.810263e-01	8.442942e-05
2.088985616499636e-05	9.806812e-01	8.500554e-05
2.100000000000000e-05	9.804776e-01	8.534222e-05
2.102434673419488e-05	9.804325e-01	8.541642e-05
2.107304020258464e-05	9.803420e-01	8.556474e-05
2.117042713936415e-05	9.801605e-01	8.586078e-05
2.136520101292317e-05	9.797950e-01	8.645057e-05
2.175474876004122e-05	9.790542e-01	8.762424e-05
2.200000000000000e-05	9.785809e-01	8.835982e-05
2.237352167621188e-05	9.778501e-01	8.946841e-05
2.297901542451097e-05	9.766397e-01	9.124969e-05
2.358450917281007e-05	9.753975e-01	9.300464e-05
2.419000292110917e-05	9.741237e-01	9.473323e-05
2.479549666940826e-05	9.728181e-01	9.643548e-05
2.540099041770736e-05	9.714808e-01	9.811137e-05
2.600648416600645e-05	9.701119e-01	9.976092e-05
2.661197791430555e-05	9.687112e-01	1.013841e-04
2.802822178734237e-05	9.653105e-01	1.050834e-04
2.944446566037920e-05	9.617395e-01	1.086175e-04
3.086070953341602e-05	9.579982e-01	1.119864e-04
3.227695340645285e-05	9.540866e-01	1.151901e-04
3.369319727948967e-05	9.500047e-01	1.182285e-04
3.510944115252650e-05	9.457525e-01	1.211018e-04
3.652568502556332e-05	9.413300e-01	1.238099e-04
4.000000000000000e-05	9.297765e-01	1.296865e-04
4.000001000000000e-05	9.297764e-01	1.296865e-04
4.031863016798140e-05	9.286668e-01	1.301703e-04
4.063725033596281e-05	9.275488e-01	1.306451e-04
4.095587050394421e-05	9.264224e-01	1.311108e-04
4.127449067192561e-05	9.252877e-01	1.315675e-04
4.159311083990702e-05	9.241446e-01	1.320151e-04
4.191173100788842e-05	9.229932e-01	1.324537e-04
4.223035117586982e-05	9.218335e-01	1.328832e-04
4.223180240506943e-05	9.218282e-01	1.328851e-04
4.223470486346864e-05	9.218175e-01	1.328890e-04
4.223961016287750e-05	9.217997e-01	1.328955e-04
4.224460989667449e-05	9.217814e-01	1.329022e-04
4.225436274149384e-05	9.217457e-01	1.329151e-04
4.227386843113253e-05	9.216744e-01	1.329410e-04
4.231287981040992e-05	9.215317e-01	1.329927e-04
4.239090256896470e-05	9.212459e-01	1.330955e-04
4.254694808607425e-05	9.206728e-01	1.332991e-04
4.285903912029336e-05	9.195207e-01	1.337013e-04
4.300000000000000e-05	9.189978e-01	1.338810e-04
4.302140172307602e-05	9.189183e-01	1.339079e-04
4.306420516922806e-05	9.187590e-01	1.339616e-04
4.314981206153213e-05	9.184402e-01	1.340685e-04
4.329575702794272e-05	9.178952e-01	1.342493e-04
4.345037314254992e-05	9.173160e-01	1.344386e-04
4.405290676848272e-05	9.150401e-01	1.351574e-04
4.462916043719692e-05	9.128358e-01	1.358123e-04
4.520541410591111e-05	9.106047e-01	1.364365e-04
4.578166777462530e-05	9.083469e-01	1.370303e-04
4.635792144333950e-05	9.060623e-01	1.375934e-04
4.693417511205370e-05	9.037509e-01	1.381260e-04
4.751042878076789e-05	9.014127e-01	1.386280e-04
4.808668244948208e-05	8.990479e-01	1.390995e-04
4.978858638527036e-05	8.919044e-01	1.403031e-04
5.149049032105863e-05	8.845363e-01	1.412468e-04
5.319239425684691e-05	8.769437e-01	1.419307e-04
5.489429819263519e-05	8.691266e-01	1.423548e-04
5.659620212842346e-05	8.610849e-01	1.425190e-04
5.829810606421174e-05	8.528186e-01	1.424234e-04
6.000001000000001e-05	8.443279e-01	1.420679e-04
6.000001280000001e-05	8.443279e-01	1.420679e-04
6.000001600000001e-05	8.443279e-01	1.420679e-04
6.000002000000001e-05	8.443278e-01	1.420679e-04
6.000095617142801e-05	8.443231e-01	1.420677e-04
6.000189234285602e-05	8.443184e-01	1.420674e-04
6.000282851428402e-05	8.443137e-01	1.420671e-04
6.000376468571202e-05	8.443089e-01	1.420669e-04
6.000470085714002e-05	8.443042e-01	1.420666e-04
6.000563702856802e-05	8.442995e-01	1.420664e-04
6.000657319999603e-05	8.442947e-01	1.420661e-04
6.001312679999205e-05	8.442616e-01	1.420643e-04
6.002623399998408e-05	8.441954e-01	1.420607e-04
6.005244839996815e-05	8.440630e-01	1.420533e-04
6.009955087697736e-05	8.438248e-01	1.420400e-04
6.012614087114038e-05	8.436903e-01	1.420325e-04
6.014133515351925e-05	8.436134e-01	1.420281e-04
6.017029455035217e-05	8.434668e-01	1.420197e-04
6.022821334401801e-05	8.431735e-01	1.420027e-04
6.028085059112476e-05	8.429067e-01	1.419870e-04
6.038612508533827e-05	8.423724e-01	1.419548e-04
6.051973064681347e-05	8.416932e-01	1.419127e-04
6.068999160090024e-05	8.408256e-01	1.418569e-04
6.087859705053965e-05	8.398620e-01	1.417927e-04
6.100000000000000e-05	8.392404e-01	1.417501e-04
6.102377410270989e-05	8.391186e-01	1.417415e-04
6.107132230812966e-05	8.388748e-01	1.417242e-04
6.116641871896921e-05	8.383865e-01	1.416888e-04
6.135661154064829e-05	8.374081e-01	1.416152e-04
6.173699718400648e-05	8.354433e-01	1.414607e-04
6.200000000000000e-05	8.340784e-01	1.413494e-04
6.237363369648345e-05	8.321307e-01	1.411767e-04
6.297913766103132e-05	8.289520e-01	1.408757e-04
6.358464162557917e-05	8.257467e-01	1.405459e-04
6.419014559012704e-05	8.225146e-01	1.401874e-04
6.479564955467490e-05	8.192558e-01	1.398003e-04
6.540115351922277e-05	8.159702e-01	1.393844e-04
6.600665748377062e-05	8.126579e-01	1.389398e-04
6.661216144831849e-05	8.093188e-01	1.384664e-04
6.802840162428441e-05	8.014032e-01	1.372434e-04
6.944464180025034e-05	7.933485e-01	1.358935e-04
7.086088197621627e-05	7.851547e-01	1.344169e-04
7.227712215218219e-05	7.768217e-01	1.328134e-04
7.369336232814812e-05	7.683496e-01	1.310832e-04
7.510960250411404e-05	7.597384e-01	1.292261e-04
7.652584268007996e-05	7.509881e-01	1.272423e-04
8.000000000000001e-05	7.289686e-01	1.220097e-04
8.000001000000001e-05	7.289686e-01	1.220097e-04
8.031843999380464e-05	7.269108e-01	1.215033e-04
8.063686998760926e-05	7.248466e-01	1.209931e-04
8.095529998141390e-05	7.227759e-01	1.204794e-04
8.127372997521853e-05	7.206986e-01	1.199620e-04
8.159215996902316e-05	7.186149e-01	1.194409e-04
8.191058996282778e-05	7.165246e-01	1.189162e-04
8.222901995663242e-05	7.144278e-01	1.183879e-04
8.223193504765923e-05	7.144086e-01	1.183830e-04
8.223554560502510e-05	7.143848e-01	1.183770e-04
8.223829131290778e-05	7.143667e-01	1.183725e-04
8.224115486889016e-05	7.143478e-01	1.183677e-04
8.224509739834661e-05	7.143218e-01	1.183611e-04
8.225298245725953e-05	7.142698e-01	1.183480e-04
8.226875257508536e-05	7.141658e-01	1.183217e-04
8.230029281073701e-05	7.139577e-01	1.182692e-04
8.236337328204033e-05	7.135413e-01	1.181639e-04
8.248953422464694e-05	7.127077e-01	1.179529e-04
8.274185610986018e-05	7.110376e-01	1.175296e-04
8.294879326646881e-05	7.096648e-01	1.171815e-04
8.300000000000000e-05	7.093247e-01	1.170951e-04
8.302217645840726e-05	7.091774e-01	1.170576e-04
8.315523520885082e-05	7.082927e-01	1.168324e-04
8.330241874311394e-05	7.073128e-01	1.165827e-04
8.345976560849174e-05	7.062637e-01	1.163151e-04
8.373100372507503e-05	7.044516e-01	1.158520e-04
8.400000000000000e-05	7.026500e-01	1.153914e-04
8.416274286994997e-05	7.015578e-01	1.151113e-04
8.437973336321662e-05	7.000989e-01	1.147365e-04
8.481371434974989e-05	6.971725e-01	1.139843e-04
8.500000000000001e-05	6.959128e-01	1.136605e-04
8.526038859191997e-05	6.941484e-01	1.132053e-04
8.560757338114659e-05	6.917893e-01	1.125962e-04
8.600000000000000e-05	6.891138e-01	1.119058e-04
8.620831087353598e-05	6.876898e-01	1.115374e-04
8.648605870491728e-05	6.857870e-01	1.110447e-04
8.705554956627626e-05	6.818708e-01	1.100318e-04
8.783324349414390e-05	6.764911e-01	1.086389e-04
8.837664969008180e-05	6.727103e-01	1.076594e-04
8.892005588601968e-05	6.689120e-01	1.066779e-04
8.946346208195758e-05	6.650964e-01	1.056946e-04
9.000686827789548e-05	6.612634e-01	1.047094e-04
9.055027447383338e-05	6.574130e-01	1.037224e-04
9.109368066977127e-05	6.535452e-01	1.027335e-04
9.163708686570917e-05	6.496600e-01	1.017427e-04
9.280935288868534e-05	6.412186e-01	9.959357e-05
9.398161891166152e-05	6.327017e-01	9.746898e-05
9.515388493463770e-05	6.241090e-01	9.536888e-05
9.632615095761387e-05	6.154408e-01	9.329327e-05
9.749841698059005e-05	6.066969e-01	9.124215e-05
9.867068300356622e-05	5.978773e-01	8.921552e-05
9.984294902654239e-05	5.889821e-01	8.721338e-05
9.984298902654240e-05	5.889818e-01	8.721332e-05
1.000000100000000e-04	5.877852e-01	8.695093e-05
1.000000128000000e-04	5.877852e-01	8.695092e-05
1.000000160000000e-04	5.877851e-01	8.695092e-05
1.000000200000000e-04	5.877851e-01	8.695092e-05
1.000009561714312e-04	5.877780e-01	8.694936e-05
1.000018923428624e-04	5.877708e-01	8.694780e-05
1.000028285142935e-04	5.877637e-01	8.694623e-05
1.000037646857247e-04	5.877565e-01	8.694467e-05
1.000047008571559e-04	5.877494e-01	8.694311e-05
1.000056370285871e-04	5.877422e-01	8.694155e-05
1.000065732000182e-04	5.877351e-01	8.693998e-05
1.000131268000364e-04	5.876852e-01	8.692905e-05
1.000262340000729e-04	5.875852e-01	8.690720e-05
1.000524484001458e-04	5.873853e-01	8.686351e-05
1.000919537357401e-04	5.870839e-01	8.679771e-05
1.001185437298909e-04	5.868810e-01	8.675345e-05
1.001261408710768e-04	5.868230e-01	8.674081e-05
1.001413351534487e-04	5.867071e-01	8.671554e-05
1.001702945508178e-04	5.864860e-01	8.666739e-05
1.002005809553161e-04	5.862548e-01	8.661708e-05
1.002316091432213e-04	5.860179e-01	8.656557e-05
1.002854858235462e-04	5.856063e-01	8.647624e-05
1.003932391841961e-04	5.847828e-01	8.629792e-05
1.005338839084805e-04	5.837071e-01	8.606580e-05
1.007029444168088e-04	5.824126e-01	8.578777e-05
1.008970088072148e-04	5.809248e-01	8.546979e-05
1.010000000000000e-04	5.801345e-01	8.530151e-05
1.010237656729510e-04	5.799520e-01	8.526280e-05
1.011663597106567e-04	5.788566e-01	8.503111e-05
1.013564850942643e-04	5.773945e-01	8.472384e-05
1.017367358614795e-04	5.744649e-01	8.411306e-05
1.020000000000000e-04	5.724321e-01	8.369257e-05
1.023719785831766e-04	5.695540e-01	8.310642e-05
1.029773316013909e-04	5.648549e-01	8.216167e-05
1.035826846196051e-04	5.601378e-01	8.123775e-05
1.041880376378194e-04	5.554026e-01	8.033467e-05
1.047933906560337e-04	5.506495e-01	7.945240e-05
1.053987436742480e-04	5.458783e-01	7.859097e-05
1.060040966924623e-04	5.410892e-01	7.775037e-05
1.066094497106765e-04	5.362820e-01	7.693059e-05
1.080257445113203e-04	5.249630e-01	7.507835e-05
1.094420393119640e-04	5.135555e-01	7.340562e-05
1.108583341126077e-04	5.020597e-01	7.191237e-05
1.122746289132514e-04	4.904754e-01	7.059863e-05
1.136909237138951e-04	4.788028e-01	6.946439e-05
1.151072185145388e-04	4.670417e-01	6.850964e-05
1.165235133151825e-04	4.551922e-01	6.773439e-05
1.170201542701564e-04	4.510193e-01	6.752376e-05
1.175167952251304e-04	4.468367e-01	6.734329e-05
1.180134361801043e-04	4.426445e-01	6.719298e-05
1.185100771350782e-04	4.384426e-01	6.707283e-05
1.190067180900521e-04	4.342311e-01	6.698284e-05
1.195033590450261e-04	4.300100e-01	6.692302e-05
1.200000000000000e-04	4.257793e-01	6.689335e-05
1.200000100000000e-04	4.257792e-01	6.689335e-05
1.203189605431584e-04	4.230573e-01	6.689234e-05
1.206379110863168e-04	4.203316e-01	6.690474e-05
1.209568616294751e-04	4.176021e-01	6.693054e-05
1.212758121726335e-04	4.148689e-01	6.696973e-05
1.215947627157919e-04	4.121320e-01	6.702233e-05
1.219137132589502e-04	4.093912e-01	6.708832e-05
1.222326638021086e-04	4.066467e-01	6.716772e-05
1.222327462583697e-04	4.066460e-01	6.716774e-05
1.222328067547812e-04	4.066455e-01	6.716776e-05
1.222328506282452e-04	4.066451e-01	6.716777e-05
1.222329034172700e-04	4.066447e-01	6.716778e-05
1.222329571364813e-04	4.066442e-01	6.716780e-05
1.222329955414990e-04	4.066439e-01	6.716781e-05
1.222330383484066e-04	4.066435e-01	6.716782e-05
1.222330760058596e-04	4.066432e-01	6.716783e-05
1.222331258492620e-04	4.066428e-01	6.716784e-05
1.222333298463587e-04	4.066410e-01	6.716790e-05
1.222335701708777e-04	4.066390e-01	6.716797e-05
1.222346120544921e-04	4.066299e-01	6.716825e-05
1.222423922512861e-04	4.065630e-01	6.717040e-05
1.223317688157529e-04	4.057932e-01	6.719591e-05
1.224211453802198e-04	4.050232e-01	6.722253e-05
1.225105219446866e-04	4.042529e-01	6.725024e-05
1.225998985091534e-04	4.034823e-01	6.727904e-05
1.226892750736202e-04	4.027114e-01	6.730894e-05
1.227786516380871e-04	4.019402e-01	6.733994e-05
1.228680282025539e-04	4.011688e-01	6.737204e-05
1.230000000000000e-04	4.000291e-01	6.742016e-05
1.230705001458710e-04	3.994201e-01	6.744776e-05
1.231645003403657e-04	3.986077e-01	6.748575e-05
1.233144498353945e-04	3.973112e-01	6.754882e-05
1.234767712688250e-04	3.959068e-01	6.762118e-05
1.237615063355277e-04	3.934411e-01	6.775679e-05
1.240000000000000e-04	3.913737e-01	6.787638e-05
1.241708410400216e-04	3.898914e-01	6.797022e-05
1.243986290933838e-04	3.879136e-01	6.810346e-05
1.248542052001082e-04	3.839526e-01	6.838611e-05
1.250000000000000e-04	3.826834e-01	6.848113e-05
1.252733456640346e-04	3.803020e-01	6.867600e-05
1.256378065494141e-04	3.771229e-01	6.895210e-05
1.260000000000000e-04	3.739592e-01	6.923929e-05
1.262186765312277e-04	3.720470e-01	6.942790e-05
1.265102452395313e-04	3.694949e-01	6.969243e-05
1.270000000000000e-04	3.652018e-01	7.015495e-05
1.274081961916250e-04	3.616176e-01	7.057968e-05
1.280000000000000e-04	3.564119e-01	7.123280e-05
1.286531139066000e-04	3.506539e-01	7.203266e-05
1.292239247679772e-04	3.456107e-01	7.278254e-05
1.298245104768132e-04	3.402932e-01	7.363285e-05
1.304250961856492e-04	3.349652e-01	7.454925e-05
1.310256818944853e-04	3.296268e-01	7.553174e-05
1.316262676033213e-04	3.242778e-01	7.658033e-05
1.322268533121574e-04	3.189184e-01	7.769501e-05
1.328274390209934e-04	3.135485e-01	7.887578e-05
1.334280247298294e-04	3.081681e-01	8.012265e-05
1.343668797684252e-04	2.997366e-01	8.220172e-05
1.353057348070210e-04	2.912832e-01	8.446278e-05
1.362445898456168e-04	2.828081e-01	8.690585e-05
1.371834448842126e-04	2.743112e-01	8.953092e-05
1.381222999228084e-04	2.657925e-01	9.233799e-05
1.390611549614042e-04	2.572520e-01	9.532706e-05
1.400000100000000e-04	2.486898e-01	9.849812e-05
1.400000130000000e-04	2.486898e-01	9.849814e-05
1.400000162000000e-04	2.486897e-01	9.849815e-05
1.400000200000000e-04	2.486897e-01	9.849816e-05
1.400009093628511e-04	2.486816e-01	9.850126e-05
1.400017987257021e-04	2.486735e-01	9.850437e-05
1.400026880885532e-04	2.486653e-01	9.850747e-05
1.400035774514042e-04	2.486572e-01	9.851058e-05
1.400044668142553e-04	2.486491e-01	9.851368e-05
1.400053561771063e-04	2.486410e-01	9.851679e-05
1.400062455399574e-04	2.486329e-01	9.851989e-05
1.400124714599147e-04	2.485760e-01	9.854163e-05
1.400249232998295e-04	2.484624e-01	9.858515e-05
1.400498269796589e-04	2.482350e-01	9.867230e-05
1.400958380464311e-04	2.478149e-01	9.883357e-05
1.401417599490155e-04	2.473956e-01	9.899501e-05
1.401442516884526e-04	2.473728e-01	9.900379e-05
1.401462437894695e-04	2.473546e-01	9.901080e-05
1.401477523118458e-04	2.473409e-01	9.901612e-05
1.401493854885641e-04	2.473259e-01	9.902187e-05
1.401509573336124e-04	2.473116e-01	9.902741e-05
1.401527071518328e-04	2.472956e-01	9.903358e-05
1.401548014199972e-04	2.472765e-01	9.904095e-05
1.401639178184147e-04	2.471932e-01	9.907309e-05
1.401730342168321e-04	2.471100e-01	9.910524e-05
1.401821506152496e-04	2.470267e-01	9.913742e-05
1.401912670136671e-04	2.469435e-01	9.916961e-05
1.402003834120846e-04	2.468602e-01	9.920183e-05
1.402094998105021e-04	2.467769e-01	9.923406e-05
1.402186162089196e-04	2.466937e-01	9.926632e-05
1.402518161672425e-04	2.463904e-01	9.938396e-05
1.403023182703572e-04	2.459291e-01	9.956341e-05
1.403796389433726e-04	2.452227e-01	9.983936e-05
1.404975894700046e-04	2.441448e-01	1.002631e-04
1.406702782752439e-04	2.425662e-01	1.008887e-04
1.408560274386085e-04	2.408675e-01	1.015681e-04
1.410000000000000e-04	2.395503e-01	1.020988e-04
