time	V(vin)	V(vout)
0.000000000000000e+00	0.000000e+00	0.000000e+00
1.124999980258129e-13	6.752701e-10	-9.264227e-06
1.364116154345335e-13	8.187972e-10	-4.979843e-06
5.526856178556712e-13	3.317441e-09	-6.646240e-09
9.967112204382181e-13	5.982661e-09	-6.541660e-09
1.884762425603311e-12	1.131310e-08	-6.332499e-09
3.377412423655824e-12	2.027258e-08	-5.980938e-09
9.999999999999999e-12	6.002401e-08	-4.421135e-09
1.275974568441819e-11	7.658911e-08	-3.771138e-09
1.551949136883637e-11	9.315421e-08	-3.121141e-09
1.827923705325456e-11	1.097193e-07	-2.471145e-09
2.103898273767275e-11	1.262844e-07	-1.821148e-09
2.379872842209094e-11	1.428495e-07	-1.171151e-09
2.655847410650912e-11	1.594146e-07	-5.211539e-10
2.931821979092730e-11	1.759797e-07	1.288431e-10
4.894307799123441e-11	2.937760e-07	4.751042e-09
8.819279439184862e-11	5.293685e-07	1.399543e-08
1.666922271930770e-10	1.000554e-06	3.248411e-08
2.529225288119974e-10	1.518142e-06	5.279340e-08
3.446828881570448e-10	2.068925e-06	7.440467e-08
5.011605663897366e-10	3.008167e-06	1.112566e-07
6.615958662735123e-10	3.971164e-06	1.490374e-07
9.824664660410638e-10	5.897158e-06	2.245811e-07
1.605660579485045e-09	9.637819e-06	3.711957e-07
2.832391134855553e-09	1.700115e-05	6.590856e-07
5.285852245596569e-09	3.172781e-05	1.229866e-06
1.019277446707860e-08	6.118112e-05	2.337571e-06
2.000661891004266e-08	1.200877e-04	4.348462e-06
3.963430779597079e-08	2.379010e-04	7.400932e-06
7.888968556782705e-08	4.735275e-04	1.050923e-05
1.574004411115396e-07	9.447805e-04	1.188585e-05
2.969028002996479e-07	1.782130e-03	1.185265e-05
4.408830315852277e-07	2.646357e-03	1.232919e-05
6.395996811935505e-07	3.839134e-03	1.318521e-05
7.910874293598241e-07	4.748424e-03	1.373519e-05
9.832950796662950e-07	5.902132e-03	1.454848e-05
1.000000000000000e-06	6.002401e-03	1.460164e-05
1.033135112776341e-06	6.201291e-03	1.470785e-05
1.099405338329025e-06	6.599071e-03	1.494581e-05
1.231945789434390e-06	7.394633e-03	1.545611e-05
1.497026691645122e-06	8.985754e-03	1.648015e-05
2.000000000000000e-06	1.200480e-02	1.841384e-05
2.156853347448462e-06	1.294630e-02	1.901718e-05
2.365991144046412e-06	1.420163e-02	1.981915e-05
2.784266737242311e-06	1.671229e-02	2.142212e-05
3.000000000000000e-06	1.800720e-02	2.224772e-05
3.250965355917539e-06	1.951360e-02	2.320682e-05
3.585585830474258e-06	2.152212e-02	2.448333e-05
4.000000000000000e-06	2.400960e-02	2.606227e-05
4.196360044572848e-06	2.518824e-02	2.680849e-05
4.458173437336647e-06	2.675974e-02	2.780182e-05
5.036399554271514e-06	3.023049e-02	2.999201e-05
5.545993314072709e-06	3.328928e-02	3.191379e-05
6.058239286834423e-06	3.636398e-02	3.384034e-05
6.504049544308840e-06	3.903991e-02	3.551077e-05
6.949859801783258e-06	4.171585e-02	3.717487e-05
7.395670059257675e-06	4.439178e-02	3.883265e-05
7.841480316732094e-06	4.706771e-02	4.048411e-05
8.287290574206512e-06	4.974364e-02	4.212924e-05
8.733100831680929e-06	5.241957e-02	4.376804e-05
9.178911089155345e-06	5.509550e-02	4.540052e-05
1.072478236213315e-05	6.437444e-02	5.102410e-05
1.227065363511096e-05	7.365338e-02	5.652837e-05
1.381652490808877e-05	8.293232e-02	6.191335e-05
1.536239618106658e-05	9.221126e-02	6.717904e-05
1.690826745404439e-05	1.014902e-01	7.232542e-05
1.845413872702220e-05	1.107691e-01	7.735252e-05
2.000001000000000e-05	1.200481e-01	8.226031e-05
2.000001280000000e-05	1.200481e-01	8.226032e-05
2.000001600000000e-05	1.200481e-01	8.226033e-05
2.000002000000000e-05	1.200481e-01	8.226034e-05
2.000095617142880e-05	1.200538e-01	8.226325e-05
2.000189234285759e-05	1.200594e-01	8.226617e-05
2.000282851428639e-05	1.200650e-01	8.226908e-05
2.000376468571518e-05	1.200706e-01	8.227200e-05
2.000470085714398e-05	1.200762e-01	8.227491e-05
2.000563702857277e-05	1.200819e-01	8.227783e-05
2.000657320000157e-05	1.200875e-01	8.228074e-05
2.001312680000314e-05	1.201268e-01	8.230114e-05
2.002623400000628e-05	1.202055e-01	8.234193e-05
2.005244840001255e-05	1.203628e-01	8.242348e-05
2.009955087705254e-05	1.206456e-01	8.256992e-05
2.012614087123311e-05	1.208052e-01	8.265252e-05
2.014133515362201e-05	1.208964e-01	8.269970e-05
2.017029455036566e-05	1.210702e-01	8.278956e-05
2.022821334385297e-05	1.214179e-01	8.296915e-05
2.028379849348200e-05	1.217515e-01	8.314128e-05
2.039496879274006e-05	1.224188e-01	8.348491e-05
2.052771203186638e-05	1.232156e-01	8.389423e-05
2.070185422978709e-05	1.242608e-01	8.442953e-05
2.088986481750424e-05	1.253893e-01	8.500565e-05
2.100000000000000e-05	1.260504e-01	8.534230e-05
2.102434717170099e-05	1.261966e-01	8.541651e-05
2.107304151510296e-05	1.264888e-01	8.556482e-05
2.117043020190691e-05	1.270734e-01	8.586088e-05
2.136520757551481e-05	1.282425e-01	8.645068e-05
2.175476232273062e-05	1.305808e-01	8.762437e-05
2.200000000000000e-05	1.320528e-01	8.835991e-05
2.237352160641257e-05	1.342949e-01	8.946850e-05
2.297901534834596e-05	1.379293e-01	9.124979e-05
2.358450909027936e-05	1.415637e-01	9.300474e-05
2.419000283221276e-05	1.451981e-01	9.473333e-05
2.479549657414616e-05	1.488325e-01	9.643558e-05
2.540099031607956e-05	1.524669e-01	9.811148e-05
2.600648405801295e-05	1.561013e-01	9.976103e-05
2.661197779994635e-05	1.597358e-01	1.013842e-04
2.802822167528680e-05	1.682366e-01	1.050835e-04
2.944446555062726e-05	1.767375e-01	1.086176e-04
3.086070942596771e-05	1.852384e-01	1.119865e-04
3.227695330130816e-05	1.937392e-01	1.151902e-04
3.369319717664862e-05	2.022401e-01	1.182287e-04
3.510944105198907e-05	2.107409e-01	1.211020e-04
3.652568492732952e-05	2.192418e-01	1.238100e-04
4.000000000000000e-05	2.400960e-01	1.296866e-04
4.000001000000000e-05	2.400961e-01	1.296866e-04
4.031863016786318e-05	2.420086e-01	1.301704e-04
4.063725033572635e-05	2.439211e-01	1.306452e-04
4.095587050358953e-05	2.458336e-01	1.311109e-04
4.127449067145270e-05	2.477460e-01	1.315676e-04
4.159311083931587e-05	2.496585e-01	1.320152e-04
4.191173100717905e-05	2.515710e-01	1.324538e-04
4.223035117504223e-05	2.534835e-01	1.328833e-04
4.223180240420045e-05	2.534922e-01	1.328853e-04
4.223470486251691e-05	2.535096e-01	1.328891e-04
4.223975675712632e-05	2.535399e-01	1.328958e-04
4.224488751865350e-05	2.535708e-01	1.329027e-04
4.225500177251263e-05	2.536315e-01	1.329161e-04
4.227523028023086e-05	2.537529e-01	1.329430e-04
4.231568729566734e-05	2.539957e-01	1.329966e-04
4.239660132654030e-05	2.544814e-01	1.331032e-04
4.255842938828622e-05	2.554528e-01	1.333141e-04
4.288208551177805e-05	2.573955e-01	1.337309e-04
4.300000000000000e-05	2.581033e-01	1.338811e-04
4.302239355014563e-05	2.582377e-01	1.339093e-04
4.306718065043688e-05	2.585065e-01	1.339655e-04
4.315675485101938e-05	2.590441e-01	1.340773e-04
4.330232260120464e-05	2.599179e-01	1.342576e-04
4.345915966983763e-05	2.608593e-01	1.344494e-04
4.400000000000000e-05	2.641056e-01	1.350961e-04
4.445200005094783e-05	2.668187e-01	1.356143e-04
4.490400010189567e-05	2.695318e-01	1.361138e-04
4.535600015284350e-05	2.722449e-01	1.365945e-04
4.580800020379134e-05	2.749580e-01	1.370566e-04
4.626000025473917e-05	2.776711e-01	1.375000e-04
4.671200030568700e-05	2.803842e-01	1.379246e-04
4.716400035663484e-05	2.830972e-01	1.383305e-04
4.899771601997272e-05	2.941039e-01	1.397721e-04
5.083143168331060e-05	3.051106e-01	1.409112e-04
5.266514734664848e-05	3.161173e-01	1.417477e-04
5.449886300998637e-05	3.271240e-01	1.422816e-04
5.633257867332425e-05	3.381307e-01	1.425129e-04
5.816629433666213e-05	3.491374e-01	1.424417e-04
6.000001000000001e-05	3.601441e-01	1.420680e-04
6.000001245000002e-05	3.601441e-01	1.420680e-04
6.000001525000002e-05	3.601441e-01	1.420680e-04
6.000002000000001e-05	3.601442e-01	1.420680e-04
6.000113170356858e-05	3.601508e-01	1.420677e-04
6.000224340713716e-05	3.601575e-01	1.420674e-04
6.000335511070573e-05	3.601642e-01	1.420671e-04
6.000446681427430e-05	3.601709e-01	1.420667e-04
6.000557851784287e-05	3.601775e-01	1.420664e-04
6.000669022141145e-05	3.601842e-01	1.420661e-04
6.000780192498002e-05	3.601909e-01	1.420658e-04
6.001558432496002e-05	3.602376e-01	1.420637e-04
6.003114912492003e-05	3.603310e-01	1.420593e-04
6.006227872484005e-05	3.605179e-01	1.420506e-04
6.011005900931874e-05	3.608047e-01	1.420371e-04
6.014204110506351e-05	3.609966e-01	1.420279e-04
6.014412690161773e-05	3.610092e-01	1.420273e-04
6.014829849472618e-05	3.610342e-01	1.420261e-04
6.015664168094307e-05	3.610843e-01	1.420237e-04
6.018258805908779e-05	3.612400e-01	1.420162e-04
6.021718322994741e-05	3.614477e-01	1.420060e-04
6.028189875928594e-05	3.618361e-01	1.419867e-04
6.041132981796300e-05	3.626130e-01	1.419470e-04
6.054276508947691e-05	3.634019e-01	1.419054e-04
6.072365394758247e-05	3.644877e-01	1.418457e-04
6.090924048997264e-05	3.656017e-01	1.417821e-04
6.100000000000000e-05	3.661464e-01	1.417502e-04
6.102551705874263e-05	3.662996e-01	1.417410e-04
6.117861941119842e-05	3.672186e-01	1.416842e-04
6.138275588113945e-05	3.684439e-01	1.416048e-04
6.179102882102153e-05	3.708945e-01	1.414382e-04
6.200000000000000e-05	3.721489e-01	1.413494e-04
6.237364425457449e-05	3.743916e-01	1.411767e-04
6.297914918202025e-05	3.780261e-01	1.408757e-04
6.358465410946602e-05	3.816606e-01	1.405459e-04
6.419015903691178e-05	3.852951e-01	1.401875e-04
6.479566396435755e-05	3.889296e-01	1.398003e-04
6.540116889180331e-05	3.925640e-01	1.393844e-04
6.600667381924909e-05	3.961985e-01	1.389398e-04
6.661217874669485e-05	3.998330e-01	1.384665e-04
6.802841857420589e-05	4.083338e-01	1.372434e-04
6.944465840171693e-05	4.168347e-01	1.358935e-04
7.086089822922797e-05	4.253355e-01	1.344169e-04
7.227713805673901e-05	4.338364e-01	1.328134e-04
7.369337788425004e-05	4.423372e-01	1.310832e-04
7.510961771176108e-05	4.508380e-01	1.292261e-04
7.652585753927213e-05	4.593389e-01	1.272423e-04
8.000000000000001e-05	4.801921e-01	1.220096e-04
8.000001000000001e-05	4.801921e-01	1.220096e-04
8.031863016812832e-05	4.821046e-01	1.215028e-04
8.063725033625663e-05	4.840171e-01	1.209924e-04
8.095587050438494e-05	4.859296e-01	1.204783e-04
8.127449067251324e-05	4.878421e-01	1.199605e-04
8.159311084064155e-05	4.897546e-01	1.194392e-04
8.191173100876986e-05	4.916671e-01	1.189141e-04
8.223035117689817e-05	4.935795e-01	1.183854e-04
8.223180240614919e-05	4.935882e-01	1.183830e-04
8.223470486465125e-05	4.936057e-01	1.183782e-04
8.223949236215218e-05	4.936344e-01	1.183702e-04
8.224438689871525e-05	4.936638e-01	1.183621e-04
8.225384973752423e-05	4.937206e-01	1.183463e-04
8.227277541514219e-05	4.938342e-01	1.183148e-04
8.231062677037810e-05	4.940614e-01	1.182517e-04
8.238632948084993e-05	4.945158e-01	1.181253e-04
8.253773490179359e-05	4.954246e-01	1.178719e-04
8.284054574368092e-05	4.972422e-01	1.173633e-04
8.300000000000000e-05	4.981993e-01	1.170948e-04
8.306135910473123e-05	4.985676e-01	1.169911e-04
8.314317124437288e-05	4.990587e-01	1.168526e-04
8.328837622391357e-05	4.999302e-01	1.166063e-04
8.344005809390835e-05	5.008407e-01	1.163483e-04
8.405175761103814e-05	5.045124e-01	1.153020e-04
8.476779789646313e-05	5.088103e-01	1.140606e-04
8.548383818188811e-05	5.131083e-01	1.128099e-04
8.619987846731310e-05	5.174062e-01	1.115500e-04
8.691591875273809e-05	5.217042e-01	1.102809e-04
8.763195903816308e-05	5.260021e-01	1.090025e-04
8.834799932358806e-05	5.303001e-01	1.077149e-04
8.906403960901305e-05	5.345981e-01	1.064181e-04
9.061463823629609e-05	5.439054e-01	1.035639e-04
9.216523686357912e-05	5.532127e-01	1.007404e-04
9.371583549086216e-05	5.625200e-01	9.794737e-05
9.526643411814519e-05	5.718273e-01	9.518496e-05
9.681703274542821e-05	5.811346e-01	9.245313e-05
9.836763137271125e-05	5.904420e-01	8.975187e-05
9.991822999999428e-05	5.997493e-01	8.708120e-05
9.991838999999430e-05	5.997502e-01	8.708093e-05
1.000000100000000e-04	6.002402e-01	8.694458e-05
1.000000128000000e-04	6.002402e-01	8.694457e-05
1.000000160000000e-04	6.002402e-01	8.694456e-05
1.000000200000000e-04	6.002402e-01	8.694456e-05
1.000009561714312e-04	6.002459e-01	8.694300e-05
1.000018923428624e-04	6.002515e-01	8.694144e-05
1.000028285142935e-04	6.002571e-01	8.693987e-05
1.000037646857247e-04	6.002627e-01	8.693831e-05
1.000047008571559e-04	6.002683e-01	8.693675e-05
1.000056370285871e-04	6.002739e-01	8.693519e-05
1.000065732000182e-04	6.002796e-01	8.693362e-05
1.000131268000364e-04	6.003189e-01	8.692269e-05
1.000262340000729e-04	6.003976e-01	8.690082e-05
1.000524484001458e-04	6.005549e-01	8.685711e-05
1.000995508772168e-04	6.008376e-01	8.677861e-05
1.001261408714357e-04	6.009973e-01	8.673433e-05
1.001413351538466e-04	6.010885e-01	8.670905e-05
1.001702945504780e-04	6.012623e-01	8.666089e-05
1.002205092497457e-04	6.015637e-01	8.657743e-05
1.002716235303011e-04	6.018705e-01	8.649260e-05
1.003738520914120e-04	6.024841e-01	8.632326e-05
1.005064717221758e-04	6.032801e-01	8.610413e-05
1.006725655083908e-04	6.042771e-01	8.583063e-05
1.008591610033717e-04	6.053971e-01	8.552451e-05
1.010000000000000e-04	6.062425e-01	8.529414e-05
1.010231922765590e-04	6.063817e-01	8.525634e-05
1.010695768296769e-04	6.066601e-01	8.518081e-05
1.011623459359129e-04	6.072170e-01	8.503007e-05
1.013478841483847e-04	6.083306e-01	8.472994e-05
1.017189605733283e-04	6.105580e-01	8.413335e-05
1.020000000000000e-04	6.122449e-01	8.368404e-05
1.023739108739684e-04	6.144893e-01	8.309440e-05
1.029794401171029e-04	6.181239e-01	8.214864e-05
1.035849693602374e-04	6.217585e-01	8.122364e-05
1.041904986033719e-04	6.253931e-01	8.031942e-05
1.047960278465064e-04	6.290278e-01	7.943596e-05
1.054015570896409e-04	6.326624e-01	7.857327e-05
1.060070863327754e-04	6.362970e-01	7.773135e-05
1.066126155759099e-04	6.399317e-01	7.691019e-05
1.080288466040243e-04	6.484325e-01	7.505535e-05
1.094450776321387e-04	6.569332e-01	7.337907e-05
1.108613086602530e-04	6.654340e-01	7.188135e-05
1.122775396883674e-04	6.739348e-01	7.056219e-05
1.136937707164818e-04	6.824356e-01	6.942159e-05
1.151100017445962e-04	6.909364e-01	6.845955e-05
1.165262327727106e-04	6.994372e-01	6.767608e-05
1.200000000000000e-04	7.202881e-01	6.680664e-05
1.200000100000000e-04	7.202882e-01	6.680664e-05
1.203188976785977e-04	7.222022e-01	6.680229e-05
1.206377853571954e-04	7.241163e-01	6.681119e-05
1.209566730357931e-04	7.260304e-01	6.683336e-05
1.212755607143908e-04	7.279445e-01	6.686879e-05
1.215944483929885e-04	7.298586e-01	6.691749e-05
1.219133360715862e-04	7.317727e-01	6.697944e-05
1.222322237501839e-04	7.336868e-01	6.705467e-05
1.222324854899532e-04	7.336884e-01	6.705473e-05
1.222328523315224e-04	7.336906e-01	6.705483e-05
1.222331836535858e-04	7.336926e-01	6.705491e-05
1.222334946671124e-04	7.336944e-01	6.705500e-05
1.222340395141532e-04	7.336977e-01	6.705514e-05
1.222346015521197e-04	7.337011e-01	6.705528e-05
1.222357256280525e-04	7.337078e-01	6.705558e-05
1.222379737799182e-04	7.337213e-01	6.705617e-05
1.222424700836496e-04	7.337483e-01	6.705735e-05
1.222514626911124e-04	7.338023e-01	6.705973e-05
1.222694479060379e-04	7.339103e-01	6.706452e-05
1.223054183358890e-04	7.341262e-01	6.707426e-05
1.223773591955911e-04	7.345580e-01	6.709443e-05
1.225212409149954e-04	7.354216e-01	6.713749e-05
1.228090043538040e-04	7.371489e-01	6.723060e-05
1.230000000000000e-04	7.382953e-01	6.729658e-05
1.230185663420665e-04	7.384068e-01	6.730350e-05
1.230556990261995e-04	7.386296e-01	6.731748e-05
1.231299643944654e-04	7.390754e-01	6.734617e-05
1.232784951309972e-04	7.399669e-01	6.740568e-05
1.234212224428081e-04	7.408237e-01	6.746602e-05
1.236710800515764e-04	7.423234e-01	6.757949e-05
1.240000000000000e-04	7.442977e-01	6.773748e-05
1.241361480583445e-04	7.451149e-01	6.780948e-05
1.243176788028038e-04	7.462046e-01	6.791057e-05
1.246807402917224e-04	7.483838e-01	6.812562e-05
1.250000000000000e-04	7.503001e-01	6.832501e-05
1.252178368933512e-04	7.516077e-01	6.847484e-05
1.255082860844860e-04	7.533510e-01	6.868705e-05
1.260000000000000e-04	7.563025e-01	6.906382e-05
1.264066288675888e-04	7.587433e-01	6.941280e-05
1.270000000000000e-04	7.623049e-01	6.995795e-05
1.276506061881421e-04	7.662101e-01	7.063105e-05
1.282230649787916e-04	7.696462e-01	7.127198e-05
1.287713287832798e-04	7.729371e-01	7.193827e-05
1.293195925877679e-04	7.762281e-01	7.265653e-05
1.298678563922561e-04	7.795190e-01	7.342676e-05
1.304161201967442e-04	7.828099e-01	7.424894e-05
1.309643840012324e-04	7.861008e-01	7.512309e-05
1.315126478057205e-04	7.893916e-01	7.604921e-05
1.320609116102087e-04	7.926825e-01	7.702729e-05
1.331950685230361e-04	7.994902e-01	7.921629e-05
1.343292254358634e-04	8.062979e-01	8.165876e-05
1.354633823486907e-04	8.131055e-01	8.435467e-05
1.365975392615180e-04	8.199132e-01	8.730405e-05
1.377316961743454e-04	8.267209e-01	9.050687e-05
1.388658530871727e-04	8.335285e-01	9.396316e-05
1.400000100000000e-04	8.403362e-01	9.767290e-05
1.400000128000000e-04	8.403362e-01	9.767291e-05
1.400000160000000e-04	8.403362e-01	9.767292e-05
1.400000200000000e-04	8.403363e-01	9.767294e-05
1.400009561714248e-04	8.403419e-01	9.767612e-05
1.400018923428497e-04	8.403475e-01	9.767930e-05
1.400028285142745e-04	8.403531e-01	9.768249e-05
1.400037646856993e-04	8.403587e-01	9.768567e-05
1.400047008571242e-04	8.403644e-01	9.768886e-05
1.400056370285490e-04	8.403700e-01	9.769205e-05
1.400065731999738e-04	8.403756e-01	9.769524e-05
1.400131267999476e-04	8.404149e-01	9.771755e-05
1.400262339998953e-04	8.404936e-01	9.776223e-05
1.400524483997905e-04	8.406510e-01	9.785168e-05
1.400919537353336e-04	8.408881e-01	9.798667e-05
1.401185437293828e-04	8.410477e-01	9.807773e-05
1.401261408705397e-04	8.410933e-01	9.810378e-05
1.401413351528536e-04	8.411845e-01	9.815593e-05
1.401702945505152e-04	8.413583e-01	9.825546e-05
1.402028688194020e-04	8.415538e-01	9.836759e-05
1.402362747187924e-04	8.417544e-01	9.848287e-05
1.402954767056309e-04	8.421097e-01	9.868792e-05
1.404138806793078e-04	8.428204e-01	9.910026e-05
1.405540322442801e-04	8.436617e-01	9.959202e-05
1.407309938858695e-04	8.447239e-01	1.002189e-04
1.409255665772444e-04	8.458918e-01	1.009143e-04
1.410000000000000e-04	8.463385e-01	1.011821e-04
1.410249513328377e-04	8.464883e-01	1.012725e-04
1.410748539985129e-04	8.467878e-01	1.014538e-04
1.411746593298635e-04	8.473869e-01	1.018182e-04
1.413742699925647e-04	8.485851e-01	1.025551e-04
1.417734913179671e-04	8.509814e-01	1.040491e-04
1.420000000000000e-04	8.523409e-01	1.049069e-04
1.423718596674272e-04	8.545730e-01	1.063529e-04
1.429772018405251e-04	8.582065e-01	1.087600e-04
1.435825440136231e-04	8.618400e-01	1.112510e-04
1.441878861867210e-04	8.654735e-01	1.138259e-04
1.447932283598189e-04	8.691070e-01	1.164848e-04
1.453985705329168e-04	8.727405e-01	1.192275e-04
1.460039127060148e-04	8.763740e-01	1.220542e-04
1.466092548791127e-04	8.800075e-01	1.249648e-04
1.480255536044028e-04	8.885087e-01	1.320867e-04
1.494418523296929e-04	8.970099e-01	1.397025e-04
1.508581510549831e-04	9.055111e-01	1.478124e-04
1.522744497802732e-04	9.140123e-01	1.564163e-04
1.536907485055633e-04	9.225135e-01	1.655143e-04
1.551070472308534e-04	9.310147e-01	1.751062e-04
1.565233459561435e-04	9.395159e-01	1.851922e-04
1.600000000000000e-04	9.603841e-01	2.121560e-04
1.600000100000000e-04	9.603842e-01	2.121561e-04
1.603187142048344e-04	9.622972e-01	2.147873e-04
1.606374184096689e-04	9.642102e-01	2.174445e-04
1.609561226145033e-04	9.661232e-01	2.201278e-04
1.612748268193377e-04	9.680362e-01	2.228372e-04
1.615935310241721e-04	9.699492e-01	2.255726e-04
1.619122352290066e-04	9.718622e-01	2.283341e-04
1.622309394338410e-04	9.737751e-01	2.311216e-04
1.622323654245896e-04	9.737837e-01	2.311341e-04
1.622329257877639e-04	9.737871e-01	2.311390e-04
1.622332104329581e-04	9.737888e-01	2.311415e-04
1.622336017189782e-04	9.737911e-01	2.311450e-04
1.622338446782380e-04	9.737926e-01	2.311471e-04
1.622341568383812e-04	9.737945e-01	2.311499e-04
1.622347811586675e-04	9.737982e-01	2.311554e-04
1.622355337680624e-04	9.738027e-01	2.311620e-04
1.622370389868519e-04	9.738117e-01	2.311752e-04
1.622395735916279e-04	9.738269e-01	2.311975e-04
1.622446428011798e-04	9.738574e-01	2.312421e-04
1.622547812202837e-04	9.739183e-01	2.313313e-04
1.622750580584914e-04	9.740400e-01	2.315098e-04
1.623156117349068e-04	9.742834e-01	2.318673e-04
1.623967190877376e-04	9.747702e-01	2.325836e-04
1.625135768345630e-04	9.754717e-01	2.336192e-04
1.627382964162277e-04	9.768205e-01	2.356198e-04
