time	V(sin32)	V(vout)
0.000000000000000e+000	-3.977968e+000	3.692145e+000
4.779529189294959e-007	-3.980965e+000	3.715490e+000
9.559058378589917e-007	-3.983689e+000	3.738504e+000
1.433858756788488e-006	-3.986141e+000	3.761185e+000
1.911811675717983e-006	-3.988321e+000	3.783535e+000
2.389764594647479e-006	-3.990230e+000	3.805554e+000
2.867717513576975e-006	-3.991866e+000	3.827241e+000
3.345670432506470e-006	-3.993229e+000	3.848596e+000
4.051384454205158e-006	-3.995362e+000	3.879493e+000
4.335971240684632e-006	-3.996119e+000	3.891717e+000
4.620558027164107e-006	-3.996792e+000	3.903809e+000
4.905144813643580e-006	-3.997381e+000	3.915769e+000
5.189731600123055e-006	-3.997886e+000	3.927596e+000
5.474318386602529e-006	-3.998306e+000	3.939291e+000
5.758905173082003e-006	-3.998642e+000	3.950854e+000
6.043491959561477e-006	-3.998894e+000	3.962285e+000
6.666666666666973e-006	-3.999523e+000	3.986816e+000
6.874651112935361e-006	-3.999699e+000	3.994849e+000
7.082635559203748e-006	-3.999827e+000	4.002807e+000
7.290620005472137e-006	-3.999907e+000	4.010690e+000
7.498604451740524e-006	-3.999941e+000	4.018497e+000
7.706588898008912e-006	-3.999926e+000	4.026228e+000
7.914573344277300e-006	-3.999864e+000	4.033884e+000
8.122557790545687e-006	-3.999755e+000	4.041465e+000
8.999999999999894e-006	-3.998945e+000	4.072568e+000
1.000000000000003e-005	-3.996792e+000	4.106269e+000
1.025680308071645e-005	-3.996403e+000	4.114614e+000
1.051360616143287e-005	-3.995928e+000	4.122834e+000
1.077040924214929e-005	-3.995366e+000	4.130927e+000
1.102721232286571e-005	-3.994718e+000	4.138895e+000
1.128401540358213e-005	-3.993982e+000	4.146737e+000
1.154081848429855e-005	-3.993160e+000	4.154454e+000
1.179762156501498e-005	-3.992252e+000	4.162045e+000
1.214097398331880e-005	-3.991018e+000	4.172002e+000
1.299999999999999e-005	-3.987596e+000	4.195872e+000
1.399999999999991e-005	-3.982681e+000	4.221792e+000
1.501734736376425e-005	-3.975456e+000	4.246085e+000
1.601465485845822e-005	-3.970557e+000	4.267845e+000
1.617339080033740e-005	-3.969411e+000	4.271113e+000
1.633212674221659e-005	-3.968257e+000	4.274330e+000
1.649086268409577e-005	-3.967095e+000	4.277497e+000
1.664959862597496e-005	-3.965924e+000	4.280613e+000
1.680833456785415e-005	-3.964745e+000	4.283680e+000
1.696707050973333e-005	-3.963557e+000	4.286696e+000
1.712580645161252e-005	-3.962361e+000	4.289662e+000
1.741935483870797e-005	-3.960025e+000	4.295004e+000
1.741936483870793e-005	-3.960025e+000	4.295004e+000
1.768620208333545e-005	-3.958268e+000	4.299696e+000
1.795303932796297e-005	-3.956401e+000	4.304240e+000
1.821987657259049e-005	-3.954424e+000	4.308635e+000
1.848671381721801e-005	-3.952337e+000	4.312883e+000
1.875355106184553e-005	-3.950140e+000	4.316983e+000
1.902038830647306e-005	-3.947834e+000	4.320934e+000
1.928722555110058e-005	-3.945417e+000	4.324738e+000
1.968768482123661e-005	-3.940643e+000	4.330164e+000
1.968783933092291e-005	-3.940641e+000	4.330166e+000
1.968797633350949e-005	-3.940639e+000	4.330168e+000
1.968806114117927e-005	-3.940638e+000	4.330169e+000
1.968816672215357e-005	-3.940637e+000	4.330171e+000
1.968828904904026e-005	-3.940635e+000	4.330172e+000
1.968829226176028e-005	-3.940635e+000	4.330172e+000
1.968831153808040e-005	-3.940635e+000	4.330173e+000
1.968832593568677e-005	-3.940635e+000	4.330173e+000
1.968833293769534e-005	-3.940635e+000	4.330173e+000
1.968833696189233e-005	-3.940635e+000	4.330173e+000
1.968834138572038e-005	-3.940635e+000	4.330173e+000
1.968834600662864e-005	-3.940635e+000	4.330173e+000
1.968835042386171e-005	-3.940634e+000	4.330173e+000
1.968835463366328e-005	-3.940634e+000	4.330173e+000
1.968836058757924e-005	-3.940634e+000	4.330173e+000
1.968836935337527e-005	-3.940634e+000	4.330173e+000
1.968838460547802e-005	-3.940634e+000	4.330173e+000
1.968841176559094e-005	-3.940634e+000	4.330173e+000
1.968846608581655e-005	-3.940633e+000	4.330174e+000
1.968855562115273e-005	-3.940632e+000	4.330175e+000
1.968864502769957e-005	-3.940631e+000	4.330177e+000
1.968876539653209e-005	-3.940630e+000	4.330178e+000
1.968890550380076e-005	-3.940628e+000	4.330180e+000
1.968909812532496e-005	-3.940626e+000	4.330183e+000
1.968933169258316e-005	-3.940623e+000	4.330186e+000
1.968964197592536e-005	-3.940619e+000	4.330190e+000
1.969003223185233e-005	-3.940614e+000	4.330195e+000
1.969055180387988e-005	-3.940608e+000	4.330202e+000
1.969122501844340e-005	-3.940600e+000	4.330211e+000
1.969334849112017e-005	-3.940575e+000	4.330238e+000
1.969502851449667e-005	-3.940555e+000	4.330260e+000
1.969735620323092e-005	-3.940527e+000	4.330291e+000
1.970068336872412e-005	-3.940488e+000	4.330335e+000
1.970548983262310e-005	-3.940430e+000	4.330398e+000
1.971220540081817e-005	-3.940350e+000	4.330485e+000
1.971891529037296e-005	-3.940270e+000	4.330573e+000
1.972725342501338e-005	-3.940171e+000	4.330682e+000
1.973631606102090e-005	-3.940063e+000	4.330800e+000
1.974825055152765e-005	-3.939920e+000	4.330955e+000
1.976285711647154e-005	-3.939746e+000	4.331144e+000
1.978535496913094e-005	-3.939478e+000	4.331436e+000
1.980913374417608e-005	-3.939194e+000	4.331742e+000
1.983134201199652e-005	-3.938930e+000	4.332027e+000
1.985573277628046e-005	-3.938639e+000	4.332339e+000
1.988294047291193e-005	-3.938314e+000	4.332686e+000
1.991276424622530e-005	-3.937959e+000	4.333064e+000
1.995425278720196e-005	-3.937464e+000	4.333586e+000
2.000000000000005e-005	-3.936919e+000	4.334160e+000
2.000762246784252e-005	-3.936840e+000	4.334255e+000
2.002286740352744e-005	-3.936682e+000	4.334444e+000
2.005335727489730e-005	-3.936368e+000	4.334821e+000
2.011433701763700e-005	-3.935738e+000	4.335569e+000
2.018532545178622e-005	-3.935005e+000	4.336431e+000
2.026090095656762e-005	-3.934224e+000	4.337336e+000
2.036669754970372e-005	-3.933132e+000	4.338581e+000
2.052274540331875e-005	-3.931520e+000	4.340376e+000
2.067531841617835e-005	-3.929945e+000	4.342087e+000
2.081619460521833e-005	-3.928490e+000	4.343622e+000
2.098474293465080e-005	-3.926749e+000	4.345415e+000
2.102021584495027e-005	-3.926365e+000	4.345783e+000
2.106064753485066e-005	-3.925910e+000	4.346197e+000
2.114151091465164e-005	-3.925002e+000	4.347019e+000
2.115799402868418e-005	-3.924816e+000	4.347185e+000
2.119096025674947e-005	-3.924446e+000	4.347514e+000
2.125689271288006e-005	-3.923705e+000	4.348167e+000
2.127389743478953e-005	-3.923514e+000	4.348334e+000
2.129090215669900e-005	-3.923323e+000	4.348500e+000
2.130790687860847e-005	-3.923132e+000	4.348665e+000
2.132491160051794e-005	-3.922941e+000	4.348830e+000
2.134191632242741e-005	-3.922749e+000	4.348994e+000
2.135892104433687e-005	-3.922558e+000	4.349156e+000
2.137592576624634e-005	-3.922367e+000	4.349319e+000
2.148613358419127e-005	-3.921129e+000	4.350351e+000
2.170654922008090e-005	-3.918651e+000	4.352339e+000
2.199999999999988e-005	-3.915353e+000	4.354889e+000
2.213224938153366e-005	-3.913780e+000	4.355954e+000
2.230858189024537e-005	-3.911683e+000	4.357314e+000
2.257883990896864e-005	-3.908469e+000	4.359281e+000
2.286544279514837e-005	-3.905060e+000	4.361238e+000
2.301950534588384e-005	-3.903275e+000	4.362227e+000
2.321713123448819e-005	-3.901396e+000	4.363395e+000
2.332037236329912e-005	-3.900414e+000	4.363973e+000
2.343881550897521e-005	-3.899289e+000	4.364603e+000
2.367570180032718e-005	-3.897037e+000	4.365775e+000
2.392993137830804e-005	-3.894620e+000	4.366942e+000
2.403492789656895e-005	-3.893146e+000	4.367382e+000
2.413992441482987e-005	-3.891599e+000	4.367796e+000
2.424492093309079e-005	-3.889979e+000	4.368185e+000
2.434991745135171e-005	-3.888287e+000	4.368548e+000
2.445491396961262e-005	-3.886522e+000	4.368885e+000
2.455991048787354e-005	-3.884684e+000	4.369197e+000
2.466490700613446e-005	-3.882774e+000	4.369483e+000
2.503395087131771e-005	-3.876657e+000	4.370375e+000
2.533095875086109e-005	-3.872432e+000	4.370861e+000
2.562720293867418e-005	-3.868219e+000	4.371163e+000
2.604841913223703e-005	-3.862184e+000	4.371314e+000
2.655119978320418e-005	-3.854578e+000	4.370976e+000
2.701244486246791e-005	-3.847541e+000	4.370273e+000
2.717906097555190e-005	-3.843996e+000	4.369898e+000
2.734567708863589e-005	-3.840592e+000	4.369469e+000
2.751229320171988e-005	-3.837329e+000	4.368987e+000
2.767890931480387e-005	-3.834207e+000	4.368451e+000
2.784552542788785e-005	-3.831225e+000	4.367861e+000
2.801214154097184e-005	-3.828384e+000	4.367219e+000
2.817875765405583e-005	-3.825684e+000	4.366522e+000
2.845860666940664e-005	-3.822383e+000	4.365219e+000
2.873845568475745e-005	-3.818745e+000	4.363763e+000
2.901830470010826e-005	-3.814771e+000	4.362156e+000
2.929815371545907e-005	-3.810461e+000	4.360397e+000
2.957800273080988e-005	-3.805814e+000	4.358487e+000
2.985785174616069e-005	-3.800831e+000	4.356425e+000
3.013770076151149e-005	-3.795511e+000	4.354211e+000
3.026597769305358e-005	-3.793201e+000	4.353134e+000
3.039425462459568e-005	-3.790888e+000	4.352031e+000
3.052253155613777e-005	-3.788570e+000	4.350901e+000
3.065080848767986e-005	-3.786250e+000	4.349746e+000
3.077908541922195e-005	-3.783925e+000	4.348565e+000
3.090736235076404e-005	-3.781597e+000	4.347357e+000
3.103563928230613e-005	-3.779265e+000	4.346123e+000
3.199999999999991e-005	-3.761005e+000	4.335757e+000
3.300342108751618e-005	-3.736341e+000	4.323171e+000
3.308663651180903e-005	-3.735066e+000	4.322047e+000
3.316985193610189e-005	-3.733790e+000	4.320909e+000
3.325306736039474e-005	-3.732514e+000	4.319758e+000
3.333628278468760e-005	-3.731239e+000	4.318594e+000
3.341949820898045e-005	-3.729963e+000	4.317417e+000
3.350271363327331e-005	-3.728687e+000	4.316227e+000
3.358592905756616e-005	-3.727412e+000	4.315023e+000
3.399999999999996e-005	-3.721064e+000	4.308902e+000
3.408909513056809e-005	-3.719177e+000	4.307540e+000
3.417819026113622e-005	-3.717290e+000	4.306164e+000
3.426728539170434e-005	-3.715404e+000	4.304776e+000
3.435638052227247e-005	-3.713517e+000	4.303376e+000
3.444547565284060e-005	-3.711630e+000	4.301962e+000
3.453457078340873e-005	-3.709743e+000	4.300535e+000
3.462366591397686e-005	-3.707856e+000	4.299096e+000
3.462366891397685e-005	-3.707856e+000	4.299096e+000
3.462367291397683e-005	-3.707856e+000	4.299096e+000
3.462367591397682e-005	-3.707856e+000	4.299096e+000
3.464402745711235e-005	-3.707425e+000	4.298765e+000
3.466437900024789e-005	-3.706994e+000	4.298433e+000
3.468473054338343e-005	-3.706563e+000	4.298101e+000
3.470508208651896e-005	-3.706132e+000	4.297767e+000
3.472543362965449e-005	-3.705701e+000	4.297433e+000
3.474578517279003e-005	-3.705270e+000	4.297098e+000
3.476613671592557e-005	-3.704839e+000	4.296763e+000
3.476843359244636e-005	-3.704791e+000	4.296725e+000
3.476959011949172e-005	-3.704766e+000	4.296706e+000
3.476997628925217e-005	-3.704758e+000	4.296700e+000
3.477018189629918e-005	-3.704754e+000	4.296696e+000
3.477029060676277e-005	-3.704751e+000	4.296695e+000
3.477037897449040e-005	-3.704749e+000	4.296693e+000
3.477047903915420e-005	-3.704747e+000	4.296691e+000
3.477067916848159e-005	-3.704743e+000	4.296688e+000
3.477107942713659e-005	-3.704735e+000	4.296681e+000
3.477348097906613e-005	-3.704684e+000	4.296642e+000
3.477668304830567e-005	-3.704616e+000	4.296589e+000
3.478308718678452e-005	-3.704480e+000	4.296484e+000
3.479589546374244e-005	-3.704209e+000	4.296271e+000
3.481085947990969e-005	-3.703892e+000	4.296024e+000
3.482755340969120e-005	-3.703539e+000	4.295747e+000
3.484595141521325e-005	-3.703149e+000	4.295441e+000
3.487013307228344e-005	-3.702637e+000	4.295038e+000
3.490492481947197e-005	-3.701900e+000	4.294457e+000
3.493564787781785e-005	-3.701249e+000	4.293942e+000
3.497096125526533e-005	-3.700502e+000	4.293349e+000
3.501031423118950e-005	-3.699662e+000	4.292686e+000
3.505157115594798e-005	-3.698763e+000	4.291986e+000
3.510658038895914e-005	-3.697564e+000	4.291048e+000
3.520269787762377e-005	-3.695469e+000	4.289397e+000
3.532457801632164e-005	-3.692813e+000	4.287279e+000
3.554810849183210e-005	-3.687941e+000	4.283332e+000
3.578152652961085e-005	-3.682853e+000	4.279134e+000
3.600000000000001e-005	-3.678092e+000	4.275144e+000
3.611370356981043e-005	-3.676170e+000	4.273025e+000
3.625502040722735e-005	-3.673782e+000	4.270362e+000
3.646065230666342e-005	-3.670307e+000	4.266425e+000
3.666958867853867e-005	-3.666776e+000	4.262347e+000
3.703024116014108e-005	-3.660313e+000	4.255200e+000
3.710604079044727e-005	-3.658109e+000	4.253667e+000
3.718184042075345e-005	-3.655905e+000	4.252124e+000
3.725764005105964e-005	-3.653701e+000	4.250572e+000
3.733343968136582e-005	-3.651497e+000	4.249010e+000
3.740923931167201e-005	-3.649293e+000	4.247439e+000
3.748503894197819e-005	-3.647088e+000	4.245858e+000
3.756083857228438e-005	-3.644884e+000	4.244267e+000
3.801406559374512e-005	-3.631777e+000	4.234611e+000
3.904211469452209e-005	-3.607078e+000	4.211544e+000
3.933610942733416e-005	-3.599704e+000	4.204655e+000
3.963010416014623e-005	-3.592352e+000	4.197650e+000
3.992409889295830e-005	-3.585020e+000	4.190529e+000
4.021809362577037e-005	-3.577710e+000	4.183292e+000
4.051208835858244e-005	-3.570421e+000	4.175938e+000
4.080608309139451e-005	-3.563153e+000	4.168469e+000
4.110007782420658e-005	-3.555906e+000	4.160883e+000
4.208734056884581e-005	-3.535335e+000	4.134588e+000
4.224497229716676e-005	-3.529760e+000	4.130274e+000
4.240260402548771e-005	-3.524335e+000	4.125931e+000
4.256023575380867e-005	-3.519060e+000	4.121558e+000
4.271786748212963e-005	-3.513934e+000	4.117156e+000
4.287549921045058e-005	-3.508958e+000	4.112726e+000
4.303313093877153e-005	-3.504132e+000	4.108266e+000
4.319076266709248e-005	-3.499456e+000	4.103777e+000
4.346757538486507e-005	-3.492013e+000	4.095815e+000
4.374438810263765e-005	-3.484417e+000	4.087771e+000
4.402120082041024e-005	-3.476669e+000	4.079645e+000
4.429801353818282e-005	-3.468768e+000	4.071436e+000
4.457482625595540e-005	-3.460714e+000	4.063144e+000
4.485163897372799e-005	-3.452507e+000	4.054771e+000
4.512845169150057e-005	-3.444147e+000	4.046314e+000
4.527557923904794e-005	-3.438226e+000	4.041784e+000
4.542270678659532e-005	-3.432603e+000	4.037234e+000
4.556983433414269e-005	-3.427280e+000	4.032663e+000
4.571696188169005e-005	-3.422255e+000	4.028072e+000
4.586408942923742e-005	-3.417529e+000	4.023460e+000
4.601121697678479e-005	-3.413102e+000	4.018828e+000
4.615834452433216e-005	-3.408973e+000	4.014175e+000
4.643849606871363e-005	-3.403074e+000	4.005251e+000
4.671864761309510e-005	-3.396623e+000	3.996257e+000
4.699879915747656e-005	-3.389622e+000	3.987195e+000
4.727895070185804e-005	-3.382069e+000	3.978063e+000
4.755910224623950e-005	-3.373966e+000	3.968862e+000
4.783925379062097e-005	-3.365311e+000	3.959593e+000
4.811940533500244e-005	-3.356106e+000	3.950254e+000
4.839013287873985e-005	-3.347780e+000	3.941166e+000
4.866086042247726e-005	-3.339392e+000	3.932025e+000
4.893158796621467e-005	-3.330941e+000	3.922831e+000
4.920231550995208e-005	-3.322428e+000	3.913583e+000
4.947304305368949e-005	-3.313852e+000	3.904282e+000
4.974377059742689e-005	-3.305213e+000	3.894927e+000
5.001449814116430e-005	-3.296511e+000	3.885519e+000
5.016586051061782e-005	-3.290147e+000	3.880235e+000
5.031722288007135e-005	-3.283916e+000	3.874936e+000
5.046858524952487e-005	-3.277819e+000	3.869624e+000
5.061994761897840e-005	-3.271855e+000	3.864298e+000
5.077130998843192e-005	-3.266025e+000	3.858958e+000
5.092267235788545e-005	-3.260328e+000	3.853603e+000
5.107403472733897e-005	-3.254765e+000	3.848235e+000
5.202470396895010e-005	-3.230980e+000	3.814204e+000
5.299999999999988e-005	-3.198116e+000	3.778789e+000
5.400308513564566e-005	-3.163807e+000	3.741899e+000
5.499999999999993e-005	-3.137740e+000	3.704835e+000
5.600614480551582e-005	-3.093158e+000	3.667089e+000
5.699999999999998e-005	-3.057272e+000	3.629531e+000
5.804557043651731e-005	-3.018753e+000	3.589795e+000
5.821564825225818e-005	-3.011783e+000	3.583312e+000
5.838572606799906e-005	-3.005120e+000	3.576827e+000
5.855580388373993e-005	-2.998765e+000	3.570338e+000
5.872588169948081e-005	-2.992717e+000	3.563847e+000
5.889595951522168e-005	-2.986976e+000	3.557352e+000
5.906603733096255e-005	-2.981543e+000	3.550855e+000
5.923611514670342e-005	-2.976417e+000	3.544354e+000
5.937472579255954e-005	-2.973546e+000	3.539054e+000
5.951333643841567e-005	-2.970124e+000	3.533753e+000
5.965194708427178e-005	-2.966152e+000	3.528450e+000
5.979055773012791e-005	-2.961629e+000	3.523147e+000
5.992916837598402e-005	-2.956555e+000	3.517843e+000
6.006777902184015e-005	-2.950932e+000	3.512538e+000
6.020638966769626e-005	-2.944757e+000	3.507232e+000
6.043010752687997e-005	-2.933988e+000	3.498667e+000
6.043011752687993e-005	-2.933988e+000	3.498666e+000
6.052691618788757e-005	-2.929101e+000	3.494960e+000
6.062371484889521e-005	-2.924337e+000	3.491254e+000
6.072051350990285e-005	-2.919694e+000	3.487548e+000
6.081731217091049e-005	-2.915174e+000	3.483841e+000
6.091411083191813e-005	-2.910776e+000	3.480135e+000
6.101090949292577e-005	-2.906500e+000	3.476429e+000
6.110770815393341e-005	-2.902346e+000	3.472723e+000
6.203662554639540e-005	-2.866012e+000	3.437173e+000
6.269066556025731e-005	-2.840008e+000	3.412175e+000
6.269079175119739e-005	-2.840003e+000	3.412170e+000
6.269096040546871e-005	-2.839996e+000	3.412163e+000
6.269104755951701e-005	-2.839993e+000	3.412160e+000
6.269112820837049e-005	-2.839990e+000	3.412157e+000
6.269123238480901e-005	-2.839986e+000	3.412153e+000
6.269126797516433e-005	-2.839984e+000	3.412152e+000
6.269128715335939e-005	-2.839983e+000	3.412151e+000
6.269129599995775e-005	-2.839983e+000	3.412151e+000
6.269130164899823e-005	-2.839983e+000	3.412151e+000
6.269130556633127e-005	-2.839983e+000	3.412150e+000
6.269131032991988e-005	-2.839983e+000	3.412150e+000
6.269131591626941e-005	-2.839982e+000	3.412150e+000
6.269132585204514e-005	-2.839982e+000	3.412150e+000
6.269133935796201e-005	-2.839981e+000	3.412149e+000
6.269136636979575e-005	-2.839980e+000	3.412148e+000
6.269142039346302e-005	-2.839978e+000	3.412146e+000
6.269150519037209e-005	-2.839975e+000	3.412143e+000
6.269158871441091e-005	-2.839971e+000	3.412140e+000
6.269170563253062e-005	-2.839967e+000	3.412135e+000
6.269184853467951e-005	-2.839961e+000	3.412130e+000
6.269204602778211e-005	-2.839953e+000	3.412122e+000
6.269228778265842e-005	-2.839944e+000	3.412113e+000
6.269261383571754e-005	-2.839931e+000	3.412100e+000
6.269303184698052e-005	-2.839914e+000	3.412085e+000
6.269359855954671e-005	-2.839891e+000	3.412063e+000
6.269434852415210e-005	-2.839862e+000	3.412034e+000
6.269680531913982e-005	-2.839764e+000	3.411940e+000
6.269882655435591e-005	-2.839684e+000	3.411863e+000
6.270171628564589e-005	-2.839569e+000	3.411753e+000
6.270599137111078e-005	-2.839399e+000	3.411590e+000
6.271240878053799e-005	-2.839144e+000	3.411345e+000
6.271991425521812e-005	-2.838845e+000	3.411058e+000
6.272851132788472e-005	-2.838503e+000	3.410729e+000
6.273847337398401e-005	-2.838107e+000	3.410349e+000
6.275087578763651e-005	-2.837614e+000	3.409875e+000
6.276658524271748e-005	-2.836990e+000	3.409276e+000
6.278849326311659e-005	-2.836118e+000	3.408439e+000
6.281293171001468e-005	-2.835147e+000	3.407506e+000
6.283567050156510e-005	-2.834243e+000	3.406638e+000
6.286087570556132e-005	-2.833241e+000	3.405675e+000
6.288854034222201e-005	-2.832141e+000	3.404619e+000
6.292125571066278e-005	-2.830840e+000	3.403370e+000
6.296997555480226e-005	-2.828903e+000	3.401511e+000
6.299999999999991e-005	-2.827709e+000	3.400365e+000
6.300642510234699e-005	-2.827385e+000	3.400120e+000
6.301927530704137e-005	-2.826738e+000	3.399629e+000
6.304497571642991e-005	-2.825442e+000	3.398649e+000
6.307131164288234e-005	-2.824115e+000	3.397644e+000
6.310501378214116e-005	-2.822416e+000	3.396358e+000
6.319655350624058e-005	-2.817802e+000	3.392866e+000
6.332891336225223e-005	-2.811131e+000	3.387820e+000
6.346913255986849e-005	-2.804064e+000	3.382475e+000
6.360329524683584e-005	-2.797301e+000	3.377364e+000
6.372951374894703e-005	-2.790939e+000	3.372558e+000
6.390581043227268e-005	-2.782053e+000	3.365849e+000
6.397272535975657e-005	-2.779106e+000	3.363303e+000
6.403964028724047e-005	-2.776369e+000	3.360758e+000
6.410655521472436e-005	-2.773842e+000	3.358214e+000
6.417347014220827e-005	-2.771525e+000	3.355671e+000
