time	V(vin)	V(vout)
0.000000000000000e+000	2.000000e-001	2.415035e+000
3.880579764203602e-007	1.883583e-001	2.424944e+000
1.088698966038911e-006	1.673390e-001	2.442985e+000
1.418509309155389e-006	1.574447e-001	2.451563e+000
1.748319652271867e-006	1.475504e-001	2.460195e+000
2.078129995388345e-006	1.376561e-001	2.468881e+000
2.407940338504823e-006	1.277618e-001	2.477621e+000
2.737750681621300e-006	1.178675e-001	2.486414e+000
3.067561024737779e-006	1.079732e-001	2.495262e+000
3.397371367854256e-006	9.807886e-002	2.504163e+000
4.090827741223650e-006	7.727516e-002	2.523044e+000
4.371870885960731e-006	6.884387e-002	2.530773e+000
4.652914030697811e-006	6.041258e-002	2.538541e+000
4.933957175434891e-006	5.198129e-002	2.546348e+000
5.215000320171971e-006	4.354999e-002	2.554195e+000
5.496043464909052e-006	3.511870e-002	2.562080e+000
5.777086609646132e-006	2.668740e-002	2.570005e+000
6.058129754383211e-006	1.825611e-002	2.577970e+000
6.666666666666973e-006	2.930989e-014	2.595361e+000
6.866642592401967e-006	-5.999278e-003	2.601120e+000
7.066618518136960e-006	-1.199856e-002	2.606899e+000
7.266594443871954e-006	-1.799783e-002	2.612698e+000
7.466570369606948e-006	-2.399711e-002	2.618517e+000
7.666546295341941e-006	-2.999639e-002	2.624355e+000
7.866522221076934e-006	-3.599567e-002	2.630213e+000
8.066498146811927e-006	-4.199494e-002	2.636091e+000
9.015166786926522e-006	-7.045501e-002	2.664262e+000
1.000000000000003e-005	-1.000000e-001	2.693990e+000
1.026853844298155e-005	-1.080562e-001	2.702183e+000
1.053707688596307e-005	-1.161123e-001	2.710412e+000
1.080561532894459e-005	-1.241685e-001	2.718675e+000
1.107415377192611e-005	-1.322246e-001	2.726974e+000
1.134269221490764e-005	-1.402808e-001	2.735307e+000
1.161123065788916e-005	-1.483369e-001	2.743676e+000
1.187976910087068e-005	-1.563931e-001	2.752079e+000
1.228152611227858e-005	-1.684458e-001	2.764719e+000
1.299999999999999e-005	-1.900000e-001	2.787499e+000
1.399999999999991e-005	-2.200000e-001	2.819617e+000
1.500000000000004e-005	-2.500000e-001	2.852185e+000
1.599999999999996e-005	-2.800000e-001	2.885185e+000
1.706150031764763e-005	-3.118450e-001	2.920666e+000
1.737216616080752e-005	-3.211650e-001	2.931137e+000
1.768283200396741e-005	-3.304850e-001	2.941643e+000
1.799349784712730e-005	-3.398049e-001	2.952184e+000
1.830416369028720e-005	-3.491249e-001	2.962759e+000
1.861482953344709e-005	-3.584449e-001	2.973369e+000
1.892549537660698e-005	-3.677649e-001	2.984014e+000
1.923616121976687e-005	-3.770849e-001	2.994694e+000
2.000000000000005e-005	-4.000000e-001	3.021078e+000
2.000001000000001e-005	-4.000003e-001	3.021079e+000
2.105176876387917e-005	-4.315531e-001	3.057713e+000
2.226074675948484e-005	-4.678224e-001	3.100210e+000
2.226106341543521e-005	-4.678319e-001	3.100221e+000
2.226122237448925e-005	-4.678367e-001	3.100227e+000
2.226131072803161e-005	-4.678393e-001	3.100230e+000
2.226138828049845e-005	-4.678417e-001	3.100233e+000
2.226148655315278e-005	-4.678446e-001	3.100236e+000
2.226150903635862e-005	-4.678453e-001	3.100237e+000
2.226151692337410e-005	-4.678455e-001	3.100237e+000
2.226152134132144e-005	-4.678456e-001	3.100237e+000
2.226152744528405e-005	-4.678458e-001	3.100238e+000
2.226153965320925e-005	-4.678462e-001	3.100238e+000
2.226156406905989e-005	-4.678469e-001	3.100239e+000
2.226161290076094e-005	-4.678484e-001	3.100241e+000
2.226169267184304e-005	-4.678508e-001	3.100243e+000
2.226177092013847e-005	-4.678531e-001	3.100246e+000
2.226188437202221e-005	-4.678565e-001	3.100250e+000
2.226202084361405e-005	-4.678606e-001	3.100255e+000
2.226221236390500e-005	-4.678664e-001	3.100262e+000
2.226244617699758e-005	-4.678734e-001	3.100270e+000
2.226276550161338e-005	-4.678830e-001	3.100281e+000
2.226317501967021e-005	-4.678952e-001	3.100296e+000
2.226373610833684e-005	-4.679121e-001	3.100316e+000
2.226448128902440e-005	-4.679344e-001	3.100342e+000
2.226695662507750e-005	-4.680087e-001	3.100429e+000
2.226902106378125e-005	-4.680706e-001	3.100502e+000
2.227199828644800e-005	-4.681599e-001	3.100607e+000
2.227645825760602e-005	-4.682938e-001	3.100765e+000
2.228292028122621e-005	-4.684876e-001	3.100993e+000
2.229074168952415e-005	-4.687223e-001	3.101269e+000
2.229993007000749e-005	-4.689979e-001	3.101594e+000
2.231064216725817e-005	-4.693193e-001	3.101972e+000
2.232411130419546e-005	-4.697233e-001	3.102448e+000
2.234148273303101e-005	-4.702445e-001	3.103061e+000
2.236690423142347e-005	-4.710071e-001	3.103960e+000
2.238964504739120e-005	-4.716893e-001	3.104763e+000
2.241322906663783e-005	-4.723969e-001	3.105597e+000
2.244397555738165e-005	-4.733193e-001	3.106684e+000
2.247289964646252e-005	-4.741870e-001	3.107706e+000
2.251402227372210e-005	-4.754207e-001	3.109161e+000
2.256287669315064e-005	-4.768863e-001	3.110889e+000
2.261793898316353e-005	-4.785382e-001	3.112838e+000
2.266875628895290e-005	-4.800627e-001	3.114637e+000
2.275457091495447e-005	-4.826371e-001	3.117676e+000
2.284682598984811e-005	-4.854048e-001	3.120945e+000
2.295434121302197e-005	-4.886302e-001	3.124758e+000
2.300000000000002e-005	-4.900000e-001	3.126377e+000
2.301812292960993e-005	-4.905437e-001	3.127020e+000
2.305436878882999e-005	-4.916311e-001	3.128307e+000
2.312686050726987e-005	-4.938058e-001	3.130881e+000
2.327184394414986e-005	-4.981553e-001	3.136032e+000
2.341386922362137e-005	-5.024161e-001	3.141083e+000
2.365679103303827e-005	-5.097038e-001	3.149733e+000
2.399999999999993e-005	-5.200000e-001	3.161967e+000
2.413028353033270e-005	-5.239085e-001	3.166619e+000
2.430399490410988e-005	-5.291198e-001	3.172828e+000
2.465141765166400e-005	-5.395426e-001	3.185261e+000
2.500000000000007e-005	-5.500000e-001	3.197748e+000
2.519625178224383e-005	-5.558876e-001	3.204791e+000
2.545792082523550e-005	-5.637376e-001	3.214193e+000
2.599999999999998e-005	-5.800000e-001	3.233687e+000
2.611244653268671e-005	-5.833734e-001	3.237737e+000
2.626237524293567e-005	-5.878713e-001	3.243140e+000
2.656223266343360e-005	-5.968670e-001	3.253953e+000
2.699999999999990e-005	-6.100000e-001	3.269749e+000
2.717991445229861e-005	-6.153975e-001	3.276248e+000
2.741980038869704e-005	-6.225940e-001	3.284918e+000
2.800000000000003e-005	-6.400000e-001	3.305899e+000
2.828786312367789e-005	-6.486359e-001	3.316317e+000
2.867168062191524e-005	-6.601504e-001	3.330212e+000
2.907676349964746e-005	-6.723029e-001	3.344880e+000
3.000000000000008e-005	-7.000000e-001	3.378315e+000
3.100000000000000e-005	-7.300000e-001	3.414508e+000
3.199999999999991e-005	-7.600000e-001	3.450639e+000
3.300000000000004e-005	-7.900000e-001	3.486670e+000
3.399999999999996e-005	-8.200000e-001	3.522565e+000
3.499999999999988e-005	-8.500000e-001	3.558284e+000
3.528571428571417e-005	-8.585714e-001	3.568452e+000
3.557142857142846e-005	-8.671429e-001	3.578600e+000
3.585714285714275e-005	-8.757143e-001	3.588729e+000
3.614285714285705e-005	-8.842857e-001	3.598837e+000
3.642857142857134e-005	-8.928571e-001	3.608926e+000
3.671428571428563e-005	-9.014286e-001	3.618995e+000
3.699999999999992e-005	-9.100000e-001	3.629045e+000
3.800001000000002e-005	-9.400003e-001	3.664012e+000
3.800001240000014e-005	-9.400004e-001	3.664012e+000
3.800001560000008e-005	-9.400005e-001	3.664012e+000
3.800001999999998e-005	-9.400006e-001	3.664012e+000
3.801862062900909e-005	-9.405586e-001	3.664660e+000
3.803722125801820e-005	-9.411166e-001	3.665307e+000
3.805582188702732e-005	-9.416746e-001	3.665954e+000
3.807442251603644e-005	-9.422327e-001	3.666601e+000
3.809302314504555e-005	-9.427907e-001	3.667248e+000
3.811162377405466e-005	-9.433487e-001	3.667895e+000
3.813022440306377e-005	-9.439067e-001	3.668542e+000
3.813971661554010e-005	-9.441915e-001	3.668872e+000
3.814152465601178e-005	-9.442458e-001	3.668935e+000
3.814201197540191e-005	-9.442604e-001	3.668952e+000
3.814224210913039e-005	-9.442673e-001	3.668960e+000
3.814236943377861e-005	-9.442711e-001	3.668964e+000
3.814243473165445e-005	-9.442731e-001	3.668967e+000
3.814250606128870e-005	-9.442752e-001	3.668969e+000
3.814258096931466e-005	-9.442774e-001	3.668972e+000
3.814273078536637e-005	-9.442819e-001	3.668977e+000
3.814290642059387e-005	-9.442872e-001	3.668983e+000
3.814321647851136e-005	-9.442965e-001	3.668994e+000
3.814636910586151e-005	-9.443911e-001	3.669103e+000
3.814997210854743e-005	-9.444991e-001	3.669229e+000
3.815717811391927e-005	-9.447153e-001	3.669479e+000
3.817159012466293e-005	-9.451477e-001	3.669980e+000
3.818889147337449e-005	-9.456667e-001	3.670581e+000
3.820830590198741e-005	-9.462492e-001	3.671256e+000
3.823061187130470e-005	-9.469184e-001	3.672031e+000
3.826238588277371e-005	-9.478716e-001	3.673134e+000
3.829146193393379e-005	-9.487439e-001	3.674144e+000
3.832508495726634e-005	-9.497526e-001	3.675311e+000
3.836381516164481e-005	-9.509144e-001	3.676654e+000
3.841185233852975e-005	-9.523556e-001	3.678320e+000
3.849308810884716e-005	-9.547926e-001	3.681135e+000
3.861719753501451e-005	-9.585159e-001	3.685432e+000
3.873325719988812e-005	-9.619977e-001	3.689445e+000
3.896537652963556e-005	-9.689613e-001	3.697460e+000
3.899999999999997e-005	-9.700000e-001	3.698654e+000
3.907030999540065e-005	-9.721093e-001	3.701076e+000
3.916405665593489e-005	-9.749217e-001	3.704302e+000
3.935154997700315e-005	-9.805465e-001	3.710742e+000
3.972653661913988e-005	-9.917961e-001	3.723589e+000
3.999999999999989e-005	-1.000000e+000	3.732935e+000
4.038699030694333e-005	-1.011610e+000	3.746087e+000
4.108845492730145e-005	-1.032654e+000	3.769793e+000
4.136962010246881e-005	-1.041089e+000	3.779232e+000
4.165078527763617e-005	-1.049524e+000	3.788634e+000
4.193195045280353e-005	-1.057959e+000	3.798001e+000
4.221311562797089e-005	-1.066393e+000	3.807332e+000
4.249428080313825e-005	-1.074828e+000	3.816627e+000
4.277544597830561e-005	-1.083263e+000	3.825885e+000
4.305661115347297e-005	-1.091698e+000	3.835108e+000
4.334458988532614e-005	-1.100338e+000	3.844507e+000
4.363256861717931e-005	-1.108977e+000	3.853863e+000
4.392054734903248e-005	-1.117616e+000	3.863175e+000
4.420852608088565e-005	-1.126256e+000	3.872445e+000
4.449650481273881e-005	-1.134895e+000	3.881672e+000
4.478448354459199e-005	-1.143535e+000	3.890855e+000
4.507246227644516e-005	-1.152174e+000	3.899996e+000
4.536107505321726e-005	-1.160832e+000	3.909104e+000
4.564968782998937e-005	-1.169491e+000	3.918163e+000
4.593830060676147e-005	-1.178149e+000	3.927174e+000
4.622691338353358e-005	-1.186807e+000	3.936137e+000
4.651552616030569e-005	-1.195466e+000	3.945051e+000
4.680413893707779e-005	-1.204124e+000	3.953917e+000
4.709275171384990e-005	-1.212783e+000	3.962734e+000
4.737369591142334e-005	-1.221211e+000	3.971261e+000
4.765464010899677e-005	-1.229639e+000	3.979739e+000
4.793558430657021e-005	-1.238068e+000	3.988166e+000
4.821652850414364e-005	-1.246496e+000	3.996545e+000
4.849747270171708e-005	-1.254924e+000	4.004873e+000
4.877841689929051e-005	-1.263353e+000	4.013153e+000
4.905936109686395e-005	-1.271781e+000	4.021382e+000
4.999999999999991e-005	-1.300000e+000	4.048531e+000
5.015371174342649e-005	-1.304611e+000	4.052900e+000
5.030742348685306e-005	-1.309223e+000	4.057255e+000
5.046113523027964e-005	-1.313834e+000	4.061596e+000
5.061484697370621e-005	-1.318445e+000	4.065924e+000
5.076855871713279e-005	-1.323057e+000	4.070238e+000
5.092227046055936e-005	-1.327668e+000	4.074539e+000
5.107598220398593e-005	-1.332279e+000	4.078827e+000
5.199999999999996e-005	-1.360000e+000	4.104190e+000
5.299999999999988e-005	-1.390000e+000	4.130929e+000
5.400000000000001e-005	-1.420000e+000	4.156912e+000
5.499999999999993e-005	-1.450000e+000	4.182126e+000
5.600000000000006e-005	-1.480000e+000	4.206554e+000
5.699999999999998e-005	-1.510000e+000	4.230179e+000
5.799999999999989e-005	-1.540000e+000	4.252994e+000
5.826931045637427e-005	-1.548079e+000	4.258995e+000
5.853862091274864e-005	-1.556159e+000	4.264937e+000
5.880793136912301e-005	-1.564238e+000	4.270819e+000
5.907724182549739e-005	-1.572317e+000	4.276643e+000
5.934655228187176e-005	-1.580397e+000	4.282406e+000
5.961586273824614e-005	-1.588476e+000	4.288111e+000
5.988517319462051e-005	-1.596555e+000	4.293756e+000
5.999999999999994e-005	-1.600000e+000	4.296143e+000
6.000001000000012e-005	-1.600000e+000	4.296143e+000
6.105162590195842e-005	-1.631549e+000	4.317488e+000
6.206510039820693e-005	-1.661953e+000	4.337173e+000
6.225601154202396e-005	-1.667680e+000	4.340784e+000
6.225613205836545e-005	-1.667684e+000	4.340786e+000
6.225627391845488e-005	-1.667688e+000	4.340789e+000
6.225635068327225e-005	-1.667691e+000	4.340790e+000
6.225641145697061e-005	-1.667692e+000	4.340792e+000
6.225649702558747e-005	-1.667695e+000	4.340793e+000
6.225652883160428e-005	-1.667696e+000	4.340794e+000
6.225654576931723e-005	-1.667696e+000	4.340794e+000
6.225655388636267e-005	-1.667697e+000	4.340794e+000
6.225655939322869e-005	-1.667697e+000	4.340795e+000
6.225656419258730e-005	-1.667697e+000	4.340795e+000
6.225656965113866e-005	-1.667697e+000	4.340795e+000
6.225657482530965e-005	-1.667697e+000	4.340795e+000
6.225658286060929e-005	-1.667697e+000	4.340795e+000
6.225659311175254e-005	-1.667698e+000	4.340795e+000
6.225661130651030e-005	-1.667698e+000	4.340796e+000
6.225664288630225e-005	-1.667699e+000	4.340796e+000
6.225670604588615e-005	-1.667701e+000	4.340797e+000
6.225678586700787e-005	-1.667704e+000	4.340799e+000
6.225688667111729e-005	-1.667707e+000	4.340801e+000
6.225701765357264e-005	-1.667711e+000	4.340803e+000
6.225719520677438e-005	-1.667716e+000	4.340806e+000
6.225742702421831e-005	-1.667723e+000	4.340811e+000
6.225774171132173e-005	-1.667732e+000	4.340816e+000
6.225816158668407e-005	-1.667745e+000	4.340825e+000
6.225874600237027e-005	-1.667762e+000	4.340836e+000
6.225955135935254e-005	-1.667787e+000	4.340851e+000
6.226236440560074e-005	-1.667871e+000	4.340904e+000
6.226483935023040e-005	-1.667945e+000	4.340950e+000
6.226857566244749e-005	-1.668057e+000	4.341021e+000
6.227444452224494e-005	-1.668233e+000	4.341131e+000
6.228115972555350e-005	-1.668435e+000	4.341258e+000
6.229025148401656e-005	-1.668707e+000	4.341428e+000
6.230080865535378e-005	-1.669024e+000	4.341627e+000
6.231471416105337e-005	-1.669441e+000	4.341888e+000
6.233166602850372e-005	-1.669950e+000	4.342206e+000
6.235577408407402e-005	-1.670673e+000	4.342659e+000
6.238725947730977e-005	-1.671618e+000	4.343248e+000
6.241558192097551e-005	-1.672467e+000	4.343778e+000
6.245004864380527e-005	-1.673501e+000	4.344422e+000
6.248176887828057e-005	-1.674453e+000	4.345014e+000
6.252848316847079e-005	-1.675854e+000	4.345883e+000
6.258127384419789e-005	-1.677438e+000	4.346864e+000
6.264448169609441e-005	-1.679334e+000	4.348034e+000
6.271367561241177e-005	-1.681410e+000	4.349312e+000
6.280964900575131e-005	-1.684289e+000	4.351078e+000
6.291698610600598e-005	-1.687510e+000	4.353044e+000
6.299999999999991e-005	-1.690000e+000	4.354559e+000
6.302143917974001e-005	-1.690643e+000	4.354949e+000
6.306431753922001e-005	-1.691930e+000	4.355727e+000
6.315007425818022e-005	-1.694502e+000	4.357278e+000
6.328473601157117e-005	-1.698542e+000	4.359702e+000
6.343222658717457e-005	-1.702967e+000	4.362338e+000
6.365288583543645e-005	-1.709587e+000	4.366241e+000
6.400000000000004e-005	-1.720000e+000	4.372329e+000
6.412263696173120e-005	-1.723679e+000	4.374446e+000
6.428615291070600e-005	-1.728585e+000	4.377245e+000
6.461318480865583e-005	-1.738396e+000	4.382775e+000
6.499999999999995e-005	-1.750000e+000	4.389244e+000
6.515201129564429e-005	-1.754560e+000	4.391735e+000
6.535469302316999e-005	-1.760641e+000	4.395021e+000
6.571023576991170e-005	-1.771307e+000	4.400715e+000
6.600000000000009e-005	-1.780000e+000	4.405302e+000
6.611705731150155e-005	-1.783512e+000	4.407123e+000
6.627313372683684e-005	-1.788194e+000	4.409529e+000
6.658528655750741e-005	-1.797559e+000	4.414277e+000
6.700000000000000e-005	-1.810000e+000	4.420507e+000
6.718729169840221e-005	-1.815619e+000	4.423252e+000
6.743701396293871e-005	-1.823110e+000	4.426856e+000
6.799999999999992e-005	-1.840000e+000	4.434858e+000
6.829966671744359e-005	-1.848990e+000	4.438973e+000
6.869922234070203e-005	-1.860977e+000	4.444360e+000
6.907991112465174e-005	-1.872397e+000	4.449397e+000
6.955937787256187e-005	-1.886781e+000	4.455512e+000
7.019178669916398e-005	-1.905754e+000	4.463340e+000
7.099999999999988e-005	-1.930000e+000	4.472836e+000
7.128571428571417e-005	-1.938571e+000	4.476052e+000
7.157142857142846e-005	-1.947143e+000	4.479203e+000
7.185714285714276e-005	-1.955714e+000	4.482290e+000
7.214285714285706e-005	-1.964286e+000	4.485311e+000
7.242857142857135e-005	-1.972857e+000	4.488268e+000
7.271428571428564e-005	-1.981429e+000	4.491160e+000
7.299999999999993e-005	-1.990000e+000	4.493987e+000
7.400000000000006e-005	-2.020000e+000	4.503335e+000
7.499999999999998e-005	-2.050000e+000	4.511872e+000
7.599999999999990e-005	-2.080000e+000	4.519613e+000
7.700000000000003e-005	-2.110000e+000	4.526566e+000
7.800001000000012e-005	-2.140000e+000	4.532738e+000
7.800001240000024e-005	-2.140000e+000	4.532738e+000
7.800001560000040e-005	-2.140001e+000	4.532738e+000
7.800002000000008e-005	-2.140001e+000	4.532738e+000
7.801059587604541e-005	-2.140318e+000	4.532800e+000
7.802117175209073e-005	-2.140635e+000	4.532861e+000
7.803174762813606e-005	-2.140952e+000	4.532922e+000
7.804232350418139e-005	-2.141270e+000	4.532983e+000
7.805289938022672e-005	-2.141587e+000	4.533043e+000
7.806347525627204e-005	-2.141904e+000	4.533104e+000
7.807405113231737e-005	-2.142221e+000	4.533165e+000
7.813990327283030e-005	-2.144197e+000	4.533541e+000
7.814185545353971e-005	-2.144256e+000	4.533552e+000
7.814302755066696e-005	-2.144291e+000	4.533559e+000
7.814339580382388e-005	-2.144302e+000	4.533561e+000
7.814360126171330e-005	-2.144308e+000	4.533562e+000
7.814371318693998e-005	-2.144311e+000	4.533563e+000
7.814380577530751e-005	-2.144314e+000	4.533563e+000
7.814390954245820e-005	-2.144317e+000	4.533564e+000
7.814411707675957e-005	-2.144324e+000	4.533565e+000
7.814536228256739e-005	-2.144361e+000	4.533572e+000
7.815034310579847e-005	-2.144510e+000	4.533600e+000
7.815698420344012e-005	-2.144710e+000	4.533638e+000
7.817026639872320e-005	-2.145108e+000	4.533713e+000
7.819232282492601e-005	-2.145770e+000	4.533838e+000
7.821305890580313e-005	-2.146392e+000	4.533955e+000
7.824154173736975e-005	-2.147246e+000	4.534114e+000
7.827800014493331e-005	-2.148340e+000	4.534318e+000
7.831219642140657e-005	-2.149366e+000	4.534508e+000
7.835662628727434e-005	-2.150699e+000	4.534754e+000
7.840325399969487e-005	-2.152098e+000	4.535010e+000
7.848168955838807e-005	-2.154451e+000	4.535437e+000
7.860059846877005e-005	-2.158018e+000	4.536075e+000
7.872918677993010e-005	-2.161875e+000	4.536752e+000
7.895430510057870e-005	-2.168629e+000	4.537914e+000
7.900000000000008e-005	-2.170000e+000	4.538147e+000
7.907136043641076e-005	-2.172141e+000	4.538503e+000
7.916650768495840e-005	-2.174995e+000	4.538970e+000
7.935680218205368e-005	-2.180704e+000	4.539879e+000
7.973739117624426e-005	-2.192122e+000	4.541631e+000
7.999999999999999e-005	-2.200000e+000	4.542799e+000
8.038701564368395e-005	-2.211611e+000	4.544379e+000
8.099999999999991e-005	-2.230000e+000	4.546704e+000
8.200000000000004e-005	-2.260000e+000	4.549874e+000
8.305661485987609e-005	-2.291698e+000	4.552436e+000
8.507246702064140e-005	-2.352174e+000	4.555131e+000
8.538758221187306e-005	-2.361627e+000	4.555295e+000
8.570269740310474e-005	-2.371081e+000	4.555391e+000
8.601781259433640e-005	-2.380534e+000	4.555419e+000
8.633292778556806e-005	-2.389988e+000	4.555380e+000
8.664804297679972e-005	-2.399441e+000	4.555273e+000
8.696315816803139e-005	-2.408895e+000	4.555099e+000
8.727827335926306e-005	-2.418348e+000	4.554857e+000
8.753271501984108e-005	-2.425981e+000	4.554615e+000
8.778715668041912e-005	-2.433615e+000	4.554331e+000
8.804159834099714e-005	-2.441248e+000	4.554004e+000
8.829604000157517e-005	-2.448881e+000	4.553635e+000
8.855048166215319e-005	-2.456514e+000	4.553224e+000
8.880492332273123e-005	-2.464148e+000	4.552770e+000
8.905936498330926e-005	-2.471781e+000	4.552274e+000
8.933659855712222e-005	-2.480098e+000	4.551677e+000
8.961383213093516e-005	-2.488415e+000	4.551033e+000
8.989106570474812e-005	-2.496732e+000	4.550340e+000
