time	V(vin)	V(vout)
0.000000000000000e+000	3.139526e-001	3.242358e+000
4.628571428571202e-007	2.921800e-001	3.258927e+000
9.257142857142403e-007	2.704030e-001	3.275433e+000
1.388571428571360e-006	2.486214e-001	3.291875e+000
1.851428571428481e-006	2.268353e-001	3.308255e+000
2.314285714285601e-006	2.050446e-001	3.324571e+000
2.777142857142721e-006	1.832495e-001	3.340824e+000
3.239999999999840e-006	1.614498e-001	3.357014e+000
4.063999999999804e-006	1.226355e-001	3.385676e+000
4.340571428571251e-006	1.096056e-001	3.395247e+000
4.617142857142697e-006	9.657529e-002	3.404795e+000
4.893714285714144e-006	8.354442e-002	3.414320e+000
5.170285714285590e-006	7.051303e-002	3.423822e+000
5.446857142857037e-006	5.748111e-002	3.433300e+000
5.723428571428483e-006	4.444868e-002	3.442756e+000
5.999999999999929e-006	3.141572e-002	3.452188e+000
6.666666666666973e-006	4.649631e-012	3.474821e+000
6.666676666667801e-006	-4.712343e-007	3.474821e+000
6.866738409937049e-006	-9.428208e-003	3.481584e+000
7.066800153206296e-006	-1.885584e-002	3.488335e+000
7.266861896475544e-006	-2.828336e-002	3.495074e+000
7.466923639744792e-006	-3.771077e-002	3.501800e+000
7.666985383014040e-006	-4.713808e-002	3.508514e+000
7.867047126283288e-006	-5.656528e-002	3.515215e+000
8.067108869552536e-006	-6.599237e-002	3.521904e+000
8.972927195779676e-006	-1.086714e-001	3.552024e+000
8.973501105444259e-006	-1.086985e-001	3.552043e+000
8.973644582860405e-006	-1.087052e-001	3.552048e+000
8.973747749130637e-006	-1.087101e-001	3.552052e+000
8.973806790832069e-006	-1.087129e-001	3.552053e+000
8.973876829279550e-006	-1.087162e-001	3.552056e+000
8.973900532074919e-006	-1.087173e-001	3.552057e+000
8.973912988220409e-006	-1.087179e-001	3.552057e+000
8.973918457409313e-006	-1.087181e-001	3.552057e+000
8.973926376073952e-006	-1.087185e-001	3.552057e+000
8.973930238702702e-006	-1.087187e-001	3.552058e+000
8.973936120853588e-006	-1.087189e-001	3.552058e+000
8.973942386909621e-006	-1.087192e-001	3.552058e+000
8.973954919021905e-006	-1.087198e-001	3.552058e+000
8.973969545447193e-006	-1.087205e-001	3.552059e+000
8.973998798297769e-006	-1.087219e-001	3.552060e+000
8.974055201160184e-006	-1.087245e-001	3.552062e+000
8.974141950972162e-006	-1.087286e-001	3.552064e+000
8.974235525489437e-006	-1.087331e-001	3.552068e+000
8.974370723901799e-006	-1.087394e-001	3.552072e+000
8.974542554152998e-006	-1.087475e-001	3.552078e+000
8.974784978975836e-006	-1.087589e-001	3.552086e+000
8.975099481076413e-006	-1.087738e-001	3.552096e+000
8.975542404800370e-006	-1.087946e-001	3.552111e+000
8.976146219449909e-006	-1.088231e-001	3.552131e+000
8.977014068442014e-006	-1.088639e-001	3.552160e+000
8.980089964332220e-006	-1.090089e-001	3.552261e+000
8.982847814971483e-006	-1.091388e-001	3.552353e+000
8.987157399015277e-006	-1.093418e-001	3.552495e+000
8.994019774171032e-006	-1.096651e-001	3.552722e+000
8.999999999999894e-006	-1.099469e-001	3.552920e+000
9.000686478005627e-006	-1.099792e-001	3.552943e+000
9.002059434016878e-006	-1.100439e-001	3.552989e+000
9.004805346039379e-006	-1.101733e-001	3.553079e+000
9.010297170084381e-006	-1.104320e-001	3.553261e+000
9.021280818174386e-006	-1.109495e-001	3.553625e+000
9.036755128860076e-006	-1.116785e-001	3.554137e+000
9.056092394264456e-006	-1.125895e-001	3.554776e+000
9.082985085481820e-006	-1.138565e-001	3.555666e+000
9.108454028089507e-006	-1.150564e-001	3.556508e+000
9.135192569372300e-006	-1.163161e-001	3.557392e+000
9.168732863454104e-006	-1.178962e-001	3.558500e+000
9.202363192500201e-006	-1.194805e-001	3.559611e+000
9.250105058282747e-006	-1.217296e-001	3.561188e+000
9.308459957421082e-006	-1.244787e-001	3.563113e+000
9.376734122119390e-006	-1.276950e-001	3.565365e+000
9.459062245735983e-006	-1.315733e-001	3.568079e+000
9.574681883322850e-006	-1.370198e-001	3.571885e+000
9.700549600569338e-006	-1.429489e-001	3.576024e+000
9.867979708217322e-006	-1.508354e-001	3.581522e+000
1.002350677385081e-005	-1.581610e-001	3.586623e+000
1.016454741695574e-005	-1.648039e-001	3.591239e+000
1.035260160776224e-005	-1.736607e-001	3.597381e+000
1.072870998937545e-005	-1.913725e-001	3.609637e+000
1.099999999999994e-005	-2.041468e-001	3.618458e+000
1.117646014539195e-005	-2.124550e-001	3.624174e+000
1.141174033924804e-005	-2.235318e-001	3.631777e+000
1.188230072696000e-005	-2.456820e-001	3.646944e+000
1.200000000000008e-005	-2.512216e-001	3.650730e+000
1.217545787209257e-005	-2.594790e-001	3.656355e+000
1.240940170154910e-005	-2.704879e-001	3.663836e+000
1.287728936046214e-005	-2.925016e-001	3.678761e+000
1.299999999999999e-005	-2.982741e-001	3.682667e+000
1.322238572001411e-005	-3.087344e-001	3.689719e+000
1.351890001336626e-005	-3.226795e-001	3.699094e+000
1.399999999999991e-005	-3.453001e-001	3.714266e+000
1.441512001069305e-005	-3.648128e-001	3.727280e+000
1.449867572345134e-005	-3.687397e-001	3.729894e+000
1.458223143620963e-005	-3.726663e-001	3.732505e+000
1.466578714896792e-005	-3.765927e-001	3.735114e+000
1.474934286172621e-005	-3.805189e-001	3.737720e+000
1.483289857448450e-005	-3.844448e-001	3.740324e+000
1.491645428724279e-005	-3.883705e-001	3.742925e+000
1.500001000000108e-005	-3.922960e-001	3.745523e+000
1.500001240000120e-005	-3.922961e-001	3.745523e+000
1.500001560000158e-005	-3.922962e-001	3.745523e+000
1.500002000000126e-005	-3.922964e-001	3.745523e+000
1.501119056849468e-005	-3.928212e-001	3.745871e+000
1.502236113698811e-005	-3.933460e-001	3.746218e+000
1.503353170548153e-005	-3.938707e-001	3.746565e+000
1.504470227397495e-005	-3.943955e-001	3.746912e+000
1.505587284246837e-005	-3.949203e-001	3.747259e+000
1.506704341096179e-005	-3.954450e-001	3.747606e+000
1.507821397945522e-005	-3.959697e-001	3.747953e+000
1.513655255066648e-005	-3.987102e-001	3.749764e+000
1.513836059247498e-005	-3.987951e-001	3.749821e+000
1.513926904084121e-005	-3.988378e-001	3.749849e+000
1.513981469879644e-005	-3.988634e-001	3.749866e+000
1.514013269354872e-005	-3.988784e-001	3.749876e+000
1.514024892922301e-005	-3.988838e-001	3.749879e+000
1.514036733078262e-005	-3.988894e-001	3.749883e+000
1.514041667148450e-005	-3.988917e-001	3.749884e+000
1.514047666451891e-005	-3.988945e-001	3.749886e+000
1.514054056055082e-005	-3.988975e-001	3.749888e+000
1.514066835261465e-005	-3.989035e-001	3.749892e+000
1.514079652678081e-005	-3.989096e-001	3.749896e+000
1.514101939616868e-005	-3.989200e-001	3.749903e+000
1.514129543534197e-005	-3.989330e-001	3.749912e+000
1.514515998376717e-005	-3.991145e-001	3.750032e+000
1.514957661053872e-005	-3.993220e-001	3.750169e+000
1.515840986408205e-005	-3.997369e-001	3.750443e+000
1.517607637116850e-005	-4.005668e-001	3.750991e+000
1.519482942687620e-005	-4.014476e-001	3.751573e+000
1.521814929073386e-005	-4.025430e-001	3.752296e+000
1.524453078239458e-005	-4.037822e-001	3.753114e+000
1.528793887550762e-005	-4.058210e-001	3.754459e+000
1.532827027757029e-005	-4.077153e-001	3.755709e+000
1.537223855475282e-005	-4.097803e-001	3.757070e+000
1.542101049235379e-005	-4.120708e-001	3.758579e+000
1.551764413085244e-005	-4.166089e-001	3.761567e+000
1.562795491965381e-005	-4.217889e-001	3.764974e+000
1.578172113074006e-005	-4.290087e-001	3.769715e+000
1.599999999999996e-005	-4.392560e-001	3.776436e+000
1.607239261185839e-005	-4.426541e-001	3.778660e+000
1.616891609433646e-005	-4.471846e-001	3.781622e+000
1.636196305929258e-005	-4.562446e-001	3.787533e+000
1.674805698920483e-005	-4.743598e-001	3.799325e+000
1.700000000000009e-005	-4.861775e-001	3.807001e+000
1.738746197118613e-005	-5.043464e-001	3.818741e+000
1.808856273627108e-005	-5.372052e-001	3.839872e+000
1.836972236697716e-005	-5.503762e-001	3.848293e+000
1.865088199768324e-005	-5.635431e-001	3.856686e+000
1.893204162838932e-005	-5.767058e-001	3.865052e+000
1.921320125909540e-005	-5.898645e-001	3.873390e+000
1.949436088980147e-005	-6.030191e-001	3.881701e+000
1.977552052050755e-005	-6.161696e-001	3.889985e+000
2.005668015121363e-005	-6.293160e-001	3.898241e+000
2.023030651901524e-005	-6.374321e-001	3.903323e+000
2.040393288681684e-005	-6.455465e-001	3.908394e+000
2.057755925461845e-005	-6.536590e-001	3.913454e+000
2.075118562242006e-005	-6.617698e-001	3.918503e+000
2.092481199022166e-005	-6.698789e-001	3.923542e+000
2.109843835802327e-005	-6.779862e-001	3.928569e+000
2.127206472582487e-005	-6.860917e-001	3.933586e+000
2.154378711135388e-005	-6.987731e-001	3.941417e+000
2.181550949688289e-005	-7.114497e-001	3.949221e+000
2.208723188241190e-005	-7.241216e-001	3.956998e+000
2.235895426794090e-005	-7.367886e-001	3.964749e+000
2.263067665346991e-005	-7.494509e-001	3.972472e+000
2.290239903899892e-005	-7.621084e-001	3.980169e+000
2.317412142452792e-005	-7.747611e-001	3.987839e+000
2.399999999999993e-005	-8.131858e-001	4.010985e+000
2.442857142857136e-005	-8.331070e-001	4.022893e+000
2.485714285714278e-005	-8.530138e-001	4.034733e+000
2.528571428571420e-005	-8.729062e-001	4.046507e+000
2.571428571428563e-005	-8.927841e-001	4.058213e+000
2.614285714285705e-005	-9.126477e-001	4.069852e+000
2.657142857142848e-005	-9.324969e-001	4.081423e+000
2.699999999999990e-005	-9.523317e-001	4.092928e+000
2.729440854984971e-005	-9.659479e-001	4.100785e+000
2.758881709969952e-005	-9.795565e-001	4.108611e+000
2.788322564954933e-005	-9.931574e-001	4.116405e+000
2.817763419939914e-005	-1.006751e+000	4.124167e+000
2.847204274924895e-005	-1.020336e+000	4.131898e+000
2.876645129909876e-005	-1.033914e+000	4.139598e+000
2.906085984894858e-005	-1.047484e+000	4.147265e+000
2.933787987052735e-005	-1.060245e+000	4.154445e+000
2.961489989210613e-005	-1.072999e+000	4.161596e+000
2.989191991368490e-005	-1.085745e+000	4.168719e+000
3.016893993526367e-005	-1.098484e+000	4.175814e+000
3.044595995684245e-005	-1.111216e+000	4.182880e+000
3.072297997842122e-005	-1.123940e+000	4.189918e+000
3.100000000000000e-005	-1.136656e+000	4.196927e+000
3.199999999999991e-005	-1.182495e+000	4.221976e+000
3.300000000000004e-005	-1.228229e+000	4.246641e+000
3.399999999999996e-005	-1.273854e+000	4.270919e+000
3.499999999999988e-005	-1.319365e+000	4.294811e+000
3.517950629608561e-005	-1.327523e+000	4.299057e+000
3.535901259217135e-005	-1.335676e+000	4.303291e+000
3.553851888825709e-005	-1.343826e+000	4.307512e+000
3.571802518434283e-005	-1.351972e+000	4.311721e+000
3.589753148042857e-005	-1.360114e+000	4.315918e+000
3.607703777651431e-005	-1.368252e+000	4.320103e+000
3.625654407260004e-005	-1.376386e+000	4.324275e+000
3.706841175269327e-005	-1.413126e+000	4.342994e+000
3.800000000000006e-005	-1.455181e+000	4.364150e+000
3.899999999999997e-005	-1.500200e+000	4.386480e+000
3.929372041540090e-005	-1.513398e+000	4.392961e+000
3.958744083080183e-005	-1.526584e+000	4.399408e+000
3.988116124620276e-005	-1.539758e+000	4.405822e+000
4.017488166160368e-005	-1.552920e+000	4.412204e+000
4.046860207700461e-005	-1.566071e+000	4.418552e+000
4.076232249240554e-005	-1.579210e+000	4.424868e+000
4.105604290780647e-005	-1.592337e+000	4.431150e+000
4.134399890983300e-005	-1.605194e+000	4.437271e+000
4.163195491185953e-005	-1.618040e+000	4.443359e+000
4.191991091388606e-005	-1.630873e+000	4.449415e+000
4.220786691591259e-005	-1.643694e+000	4.455439e+000
4.249582291793912e-005	-1.656503e+000	4.461431e+000
4.278377891996565e-005	-1.669301e+000	4.467391e+000
4.307173492199218e-005	-1.682086e+000	4.473319e+000
4.336031860458614e-005	-1.694886e+000	4.479222e+000
4.364890228718010e-005	-1.707674e+000	4.485092e+000
4.393748596977406e-005	-1.720449e+000	4.490930e+000
4.422606965236803e-005	-1.733211e+000	4.496735e+000
4.451465333496199e-005	-1.745961e+000	4.502507e+000
4.480323701755595e-005	-1.758697e+000	4.508247e+000
4.509182070014991e-005	-1.771421e+000	4.513954e+000
4.538960284931248e-005	-1.784537e+000	4.519804e+000
4.568738499847505e-005	-1.797638e+000	4.525619e+000
4.598516714763762e-005	-1.810725e+000	4.531399e+000
4.628294929680019e-005	-1.823798e+000	4.537145e+000
4.658073144596276e-005	-1.836857e+000	4.542855e+000
4.687851359512533e-005	-1.849901e+000	4.548531e+000
4.717629574428790e-005	-1.862931e+000	4.554171e+000
4.734158682843741e-005	-1.870157e+000	4.557285e+000
4.750687791258692e-005	-1.877378e+000	4.560388e+000
4.767216899673643e-005	-1.884595e+000	4.563480e+000
4.783746008088594e-005	-1.891808e+000	4.566562e+000
4.800275116503545e-005	-1.899015e+000	4.569634e+000
4.816804224918496e-005	-1.906219e+000	4.572694e+000
4.833333333333447e-005	-1.913417e+000	4.575745e+000
4.833334333333465e-005	-1.913418e+000	4.575745e+000
4.857143714285826e-005	-1.923779e+000	4.580115e+000
4.880953095238187e-005	-1.934130e+000	4.584463e+000
4.904762476190548e-005	-1.944472e+000	4.588789e+000
4.928571857142908e-005	-1.954803e+000	4.593092e+000
4.952381238095270e-005	-1.965125e+000	4.597372e+000
4.976190619047631e-005	-1.975437e+000	4.601631e+000
4.999999999999991e-005	-1.985739e+000	4.605867e+000
5.063524285083389e-005	-2.013177e+000	4.617051e+000
5.063549131448220e-005	-2.013187e+000	4.617055e+000
5.063566770539081e-005	-2.013195e+000	4.617058e+000
5.063576766771612e-005	-2.013199e+000	4.617060e+000
5.063584036712750e-005	-2.013203e+000	4.617061e+000
5.063594119472745e-005	-2.013207e+000	4.617063e+000
5.063603208413283e-005	-2.013211e+000	4.617064e+000
5.063605373034413e-005	-2.013212e+000	4.617065e+000
5.063606192362569e-005	-2.013212e+000	4.617065e+000
5.063606594703685e-005	-2.013212e+000	4.617065e+000
5.063607145259965e-005	-2.013212e+000	4.617065e+000
5.063607839143024e-005	-2.013213e+000	4.617065e+000
5.063609226909163e-005	-2.013213e+000	4.617065e+000
5.063612002441419e-005	-2.013215e+000	4.617066e+000
5.063617553505953e-005	-2.013217e+000	4.617067e+000
5.063625589535412e-005	-2.013221e+000	4.617068e+000
5.063634231304505e-005	-2.013224e+000	4.617070e+000
5.063646183356245e-005	-2.013229e+000	4.617072e+000
5.063661110508728e-005	-2.013236e+000	4.617074e+000
5.063681224457667e-005	-2.013244e+000	4.617078e+000
5.063706634401413e-005	-2.013255e+000	4.617083e+000
5.063740530437998e-005	-2.013270e+000	4.617088e+000
5.063784935158112e-005	-2.013289e+000	4.617096e+000
5.063844900090393e-005	-2.013315e+000	4.617107e+000
5.064037779106407e-005	-2.013398e+000	4.617140e+000
5.064194259708711e-005	-2.013466e+000	4.617168e+000
5.064418361626919e-005	-2.013562e+000	4.617207e+000
5.064744854652806e-005	-2.013703e+000	4.617264e+000
5.065233460829267e-005	-2.013914e+000	4.617349e+000
5.065907834459599e-005	-2.014205e+000	4.617467e+000
5.066738069608545e-005	-2.014563e+000	4.617612e+000
5.067663981692398e-005	-2.014962e+000	4.617774e+000
5.068795571785750e-005	-2.015450e+000	4.617971e+000
5.070185003759283e-005	-2.016050e+000	4.618214e+000
5.072061587621589e-005	-2.016859e+000	4.618541e+000
5.074855004688367e-005	-2.018063e+000	4.619029e+000
5.076951558750302e-005	-2.018967e+000	4.619394e+000
5.079273554082402e-005	-2.019968e+000	4.619799e+000
5.082270240669993e-005	-2.021260e+000	4.620320e+000
5.085298654026256e-005	-2.022565e+000	4.620847e+000
5.089601027595775e-005	-2.024419e+000	4.621595e+000
5.094014827469241e-005	-2.026321e+000	4.622361e+000
5.098996424698606e-005	-2.028466e+000	4.623225e+000
5.100000000000005e-005	-2.028899e+000	4.623399e+000
5.102311334522163e-005	-2.029894e+000	4.623800e+000
5.104622669044320e-005	-2.030890e+000	4.624200e+000
5.106934003566478e-005	-2.031885e+000	4.624600e+000
5.109245338088635e-005	-2.032880e+000	4.625000e+000
5.111556672610793e-005	-2.033875e+000	4.625399e+000
5.113868007132950e-005	-2.034870e+000	4.625798e+000
5.116179341655108e-005	-2.035865e+000	4.626197e+000
5.125710967033930e-005	-2.039967e+000	4.627841e+000
5.138915630343373e-005	-2.045646e+000	4.630111e+000
5.153885657188597e-005	-2.052081e+000	4.632678e+000
5.166187868046080e-005	-2.057366e+000	4.634779e+000
5.184313729752034e-005	-2.065148e+000	4.637865e+000
5.201856711642481e-005	-2.072674e+000	4.640841e+000
5.212996981497349e-005	-2.077451e+000	4.642723e+000
5.227850674637186e-005	-2.083815e+000	4.645221e+000
5.257558060916840e-005	-2.096533e+000	4.650188e+000
5.299999999999988e-005	-2.114673e+000	4.657248e+000
5.317824431767793e-005	-2.122281e+000	4.660182e+000
5.341590340791512e-005	-2.132416e+000	4.664071e+000
5.389122158838970e-005	-2.152655e+000	4.671802e+000
5.400000000000001e-005	-2.157280e+000	4.673562e+000
5.417669262717021e-005	-2.164789e+000	4.676398e+000
5.441228279673047e-005	-2.174791e+000	4.680157e+000
5.488346313585121e-005	-2.194763e+000	4.687628e+000
5.499999999999993e-005	-2.199696e+000	4.689466e+000
5.520714548441666e-005	-2.208458e+000	4.692705e+000
5.548333946363911e-005	-2.220127e+000	4.696992e+000
5.600000000000006e-005	-2.241916e+000	4.704962e+000
5.638667157091136e-005	-2.258188e+000	4.710837e+000
5.666667666666793e-005	-2.269953e+000	4.715065e+000
5.666667966666792e-005	-2.269953e+000	4.715065e+000
5.666668366666790e-005	-2.269953e+000	4.715065e+000
5.666668666666811e-005	-2.269953e+000	4.715065e+000
5.668551753460881e-005	-2.270744e+000	4.715347e+000
5.670434840254952e-005	-2.271535e+000	4.715630e+000
5.672317927049022e-005	-2.272325e+000	4.715912e+000
5.674201013843093e-005	-2.273116e+000	4.716195e+000
5.676084100637163e-005	-2.273906e+000	4.716477e+000
5.677967187431234e-005	-2.274696e+000	4.716759e+000
5.679850274225304e-005	-2.275486e+000	4.717041e+000
5.680609976993034e-005	-2.275805e+000	4.717155e+000
5.680814275708414e-005	-2.275891e+000	4.717185e+000
5.680910492645284e-005	-2.275931e+000	4.717199e+000
5.680947388876536e-005	-2.275947e+000	4.717205e+000
5.680974829348285e-005	-2.275958e+000	4.717209e+000
5.680990450125482e-005	-2.275965e+000	4.717211e+000
5.681008842657554e-005	-2.275972e+000	4.717214e+000
5.681031977962446e-005	-2.275982e+000	4.717217e+000
5.681355872231078e-005	-2.276118e+000	4.717266e+000
5.681726037109515e-005	-2.276273e+000	4.717321e+000
5.682466366866389e-005	-2.276584e+000	4.717432e+000
5.683947026380114e-005	-2.277205e+000	4.717653e+000
5.685502914326394e-005	-2.277858e+000	4.717886e+000
5.687385475132162e-005	-2.278647e+000	4.718167e+000
5.689396977066625e-005	-2.279491e+000	4.718467e+000
5.692411317173986e-005	-2.280755e+000	4.718917e+000
5.695107617556192e-005	-2.281886e+000	4.719319e+000
5.700360782069321e-005	-2.284088e+000	4.720101e+000
5.702525474485308e-005	-2.284996e+000	4.720423e+000
5.705411731039963e-005	-2.286206e+000	4.720852e+000
5.711184244149253e-005	-2.288624e+000	4.721709e+000
5.720487288866797e-005	-2.292521e+000	4.723087e+000
5.730516473731657e-005	-2.296720e+000	4.724568e+000
5.747427112402022e-005	-2.303796e+000	4.727055e+000
5.770965624405083e-005	-2.313635e+000	4.730498e+000
5.798365259100549e-005	-2.325073e+000	4.734486e+000
5.803269481798870e-005	-2.327119e+000	4.735196e+000
5.809808445396631e-005	-2.329846e+000	4.736139e+000
5.822886372592153e-005	-2.335297e+000	4.738020e+000
5.849042226983197e-005	-2.346189e+000	4.741756e+000
5.905231170878203e-005	-2.369538e+000	4.749721e+000
5.933055289324175e-005	-2.381076e+000	4.753608e+000
5.960879407770147e-005	-2.392597e+000	4.757463e+000
5.988703526216119e-005	-2.404102e+000	4.761288e+000
6.016527644662091e-005	-2.415590e+000	4.765081e+000
6.044351763108064e-005	-2.427062e+000	4.768844e+000
6.072175881554035e-005	-2.438517e+000	4.772575e+000
6.100000000000007e-005	-2.449956e+000	4.776276e+000
6.205356718979281e-005	-2.493114e+000	4.789985e+000
6.406856600293487e-005	-2.574968e+000	4.814921e+000
6.463822361245905e-005	-2.597943e+000	4.821663e+000
6.520788122198323e-005	-2.620842e+000	4.828269e+000
6.577753883150741e-005	-2.643664e+000	4.834741e+000
6.634719644103159e-005	-2.666410e+000	4.841078e+000
6.691685405055576e-005	-2.689079e+000	4.847280e+000
6.748651166007994e-005	-2.711672e+000	4.853346e+000
6.805616926960413e-005	-2.734188e+000	4.859278e+000
7.021568999528030e-005	-2.818818e+000	4.880510e+000
7.099999999999988e-005	-2.849267e+000	4.887741e+000
7.128571428571417e-005	-2.860321e+000	4.890305e+000
7.157142857142846e-005	-2.871354e+000	4.892836e+000
7.185714285714276e-005	-2.882366e+000	4.895334e+000
7.214285714285706e-005	-2.893357e+000	4.897797e+000
7.242857142857135e-005	-2.904327e+000	4.900228e+000
7.271428571428564e-005	-2.915276e+000	4.902625e+000
