time	V(vin)	V(vout)
0.000000000000000e+000	2.467009e+000	7.447735e-001
1.056763657613204e-006	2.244283e+000	7.896369e-001
1.206926670408810e-006	2.203363e+000	7.959908e-001
1.357089683204416e-006	2.162985e+000	8.023391e-001
1.507252696000022e-006	2.123147e+000	8.086817e-001
1.657415708795628e-006	2.083850e+000	8.150186e-001
1.807578721591234e-006	2.045093e+000	8.213499e-001
1.957741734386840e-006	2.006877e+000	8.276755e-001
2.107904747182445e-006	1.969203e+000	8.339955e-001
2.250894764332834e-006	1.936729e+000	8.400060e-001
2.393884781483224e-006	1.904963e+000	8.460105e-001
2.536874798633613e-006	1.873904e+000	8.520092e-001
2.679864815784003e-006	1.843553e+000	8.580019e-001
2.822854832934392e-006	1.813910e+000	8.639887e-001
2.965844850084782e-006	1.784975e+000	8.699695e-001
3.108834867235170e-006	1.756747e+000	8.759444e-001
3.251473333199178e-006	1.734372e+000	8.818963e-001
3.394111799163185e-006	1.711246e+000	8.878415e-001
3.536750265127192e-006	1.687369e+000	8.937799e-001
3.679388731091199e-006	1.662740e+000	8.997116e-001
3.822027197055207e-006	1.637359e+000	9.056366e-001
3.964665663019214e-006	1.611227e+000	9.115548e-001
4.107304128983221e-006	1.584343e+000	9.174663e-001
4.384805312082747e-006	1.522543e+000	9.289439e-001
4.662306495182273e-006	1.460253e+000	9.403910e-001
4.939807678281799e-006	1.397474e+000	9.518074e-001
5.217308861381326e-006	1.334205e+000	9.631933e-001
5.494810044480852e-006	1.270446e+000	9.745485e-001
5.772311227580378e-006	1.206198e+000	9.858732e-001
6.049812410679903e-006	1.141461e+000	9.971673e-001
7.035775676857668e-006	8.590374e-001	1.037001e+000
8.017682018120718e-006	6.314957e-001	1.076205e+000
8.159375129620961e-006	6.067257e-001	1.081820e+000
8.301068241121205e-006	5.818614e-001	1.087426e+000
8.442761352621447e-006	5.569026e-001	1.093021e+000
8.584454464121690e-006	5.318493e-001	1.098605e+000
8.726147575621934e-006	5.067017e-001	1.104179e+000
8.867840687122176e-006	4.814595e-001	1.109743e+000
9.009533798622418e-006	4.561230e-001	1.115297e+000
9.042828295900243e-006	4.463375e-001	1.116599e+000
9.076122793178069e-006	4.365520e-001	1.117902e+000
9.109417290455893e-006	4.267666e-001	1.119203e+000
9.142711787733719e-006	4.169811e-001	1.120504e+000
9.176006285011543e-006	4.071957e-001	1.121805e+000
9.209300782289369e-006	3.974102e-001	1.123105e+000
9.242595279567193e-006	3.876248e-001	1.124404e+000
1.000000000000003e-005	1.650190e-001	1.153786e+000
1.006073572575213e-005	1.507123e-001	1.156127e+000
1.017525954856175e-005	1.237356e-001	1.160537e+000
1.072289530554835e-005	-5.263327e-003	1.181503e+000
1.104972640569228e-005	-8.235238e-002	1.193934e+000
1.137655750583621e-005	-1.593324e-001	1.206295e+000
1.170338860598014e-005	-2.362033e-001	1.218585e+000
1.203021970612407e-005	-3.129652e-001	1.230804e+000
1.235705080626800e-005	-3.896180e-001	1.242954e+000
1.268388190641193e-005	-4.661618e-001	1.255032e+000
1.301071300655586e-005	-5.425965e-001	1.267040e+000
1.310931163471817e-005	-5.598764e-001	1.270647e+000
1.320791026288049e-005	-5.771562e-001	1.274246e+000
1.330650889104281e-005	-5.944361e-001	1.277837e+000
1.340510751920513e-005	-6.117159e-001	1.281421e+000
1.350370614736745e-005	-6.289958e-001	1.284997e+000
1.360230477552977e-005	-6.462756e-001	1.288566e+000
1.370090340369209e-005	-6.635555e-001	1.292127e+000
1.401179331247536e-005	-7.193929e-001	1.303329e+000
1.405621576264059e-005	-7.322728e-001	1.304922e+000
1.410063821280582e-005	-7.451527e-001	1.306514e+000
1.414506066297106e-005	-7.580326e-001	1.308104e+000
1.418948311313629e-005	-7.709126e-001	1.309693e+000
1.423390556330152e-005	-7.837925e-001	1.311280e+000
1.427832801346675e-005	-7.966724e-001	1.312866e+000
1.432275046363198e-005	-8.095524e-001	1.314450e+000
1.442670740780159e-005	-8.403481e-001	1.318149e+000
1.453066435197120e-005	-8.707812e-001	1.321841e+000
1.463462129614081e-005	-9.008516e-001	1.325526e+000
1.473857824031043e-005	-9.305595e-001	1.329203e+000
1.484253518448003e-005	-9.599049e-001	1.332874e+000
1.494649212864964e-005	-9.888876e-001	1.336537e+000
1.505044907281926e-005	-1.017508e+000	1.340193e+000
1.604945169398535e-005	-1.244122e+000	1.374857e+000
1.706410415501297e-005	-1.420415e+000	1.409235e+000
1.735600480517402e-005	-1.485244e+000	1.418964e+000
1.764790545533506e-005	-1.550363e+000	1.428619e+000
1.793980610549611e-005	-1.615771e+000	1.438200e+000
1.823170675565716e-005	-1.681470e+000	1.447707e+000
1.852360740581821e-005	-1.747458e+000	1.457140e+000
1.881550805597926e-005	-1.813735e+000	1.466500e+000
1.910740870614031e-005	-1.880303e+000	1.475786e+000
1.926297967635243e-005	-1.925490e+000	1.480699e+000
1.941855064656455e-005	-1.969066e+000	1.485591e+000
1.957412161677667e-005	-2.011029e+000	1.490460e+000
1.972969258698880e-005	-2.051381e+000	1.495307e+000
1.988526355720092e-005	-2.090121e+000	1.500133e+000
2.004083452741304e-005	-2.127249e+000	1.504936e+000
2.019640549762516e-005	-2.162766e+000	1.509718e+000
2.046032522448268e-005	-2.220638e+000	1.517774e+000
2.072424495134020e-005	-2.275090e+000	1.525764e+000
2.098816467819772e-005	-2.326123e+000	1.533685e+000
2.125208440505524e-005	-2.373736e+000	1.541540e+000
2.151600413191276e-005	-2.417929e+000	1.549327e+000
2.177992385877028e-005	-2.458703e+000	1.557047e+000
2.204384358562780e-005	-2.496057e+000	1.564699e+000
2.253969253968274e-005	-2.595992e+000	1.578883e+000
2.253969353968274e-005	-2.595992e+000	1.578883e+000
2.253969553968273e-005	-2.595993e+000	1.578883e+000
2.253969953968271e-005	-2.595994e+000	1.578883e+000
2.253970253968270e-005	-2.595994e+000	1.578883e+000
2.253970278099943e-005	-2.595994e+000	1.578883e+000
2.253970326363290e-005	-2.595994e+000	1.578883e+000
2.253970422889983e-005	-2.595994e+000	1.578884e+000
2.253970615943390e-005	-2.595995e+000	1.578884e+000
2.253971002050183e-005	-2.595996e+000	1.578884e+000
2.253971774263770e-005	-2.595997e+000	1.578884e+000
2.253973318690943e-005	-2.596000e+000	1.578884e+000
2.253976407545289e-005	-2.596006e+000	1.578885e+000
2.253980024998089e-005	-2.596014e+000	1.578886e+000
2.253984627119616e-005	-2.596023e+000	1.578887e+000
2.253990235826951e-005	-2.596034e+000	1.578889e+000
2.253999714251051e-005	-2.596053e+000	1.578892e+000
2.254006679507873e-005	-2.596067e+000	1.578894e+000
2.254014108425424e-005	-2.596082e+000	1.578896e+000
2.254021702146562e-005	-2.596098e+000	1.578898e+000
2.254028568858947e-005	-2.596112e+000	1.578900e+000
2.254036289853472e-005	-2.596127e+000	1.578902e+000
2.254042272319362e-005	-2.596139e+000	1.578904e+000
2.254045859013737e-005	-2.596146e+000	1.578905e+000
2.254048476926936e-005	-2.596152e+000	1.578906e+000
2.254050622940099e-005	-2.596156e+000	1.578906e+000
2.254052951360282e-005	-2.596161e+000	1.578907e+000
2.254057608200646e-005	-2.596170e+000	1.578908e+000
2.254066921881376e-005	-2.596189e+000	1.578911e+000
2.254071748818056e-005	-2.596199e+000	1.578912e+000
2.254077712036690e-005	-2.596211e+000	1.578914e+000
2.254082343909809e-005	-2.596220e+000	1.578915e+000
2.254087204983245e-005	-2.596230e+000	1.578917e+000
2.254092396420889e-005	-2.596240e+000	1.578918e+000
2.254094651169903e-005	-2.596245e+000	1.578919e+000
2.254096779734914e-005	-2.596249e+000	1.578919e+000
2.254099074499596e-005	-2.596254e+000	1.578920e+000
2.254103664028960e-005	-2.596263e+000	1.578921e+000
2.254109105148021e-005	-2.596274e+000	1.578923e+000
2.254114738476590e-005	-2.596285e+000	1.578924e+000
2.254122264191472e-005	-2.596300e+000	1.578927e+000
2.254131485298272e-005	-2.596319e+000	1.578929e+000
2.254143865261927e-005	-2.596344e+000	1.578933e+000
2.254159168569875e-005	-2.596375e+000	1.578937e+000
2.254179438971509e-005	-2.596416e+000	1.578943e+000
2.254205599196645e-005	-2.596468e+000	1.578950e+000
2.254231213301102e-005	-2.596520e+000	1.578957e+000
2.254257624224897e-005	-2.596573e+000	1.578965e+000
2.254293295005658e-005	-2.596645e+000	1.578975e+000
2.254331924985515e-005	-2.596723e+000	1.578986e+000
2.254368428125002e-005	-2.596797e+000	1.578996e+000
2.254415678733484e-005	-2.596892e+000	1.579010e+000
2.254476094700440e-005	-2.597013e+000	1.579027e+000
2.254557450969644e-005	-2.597178e+000	1.579050e+000
2.254684643172573e-005	-2.597434e+000	1.579086e+000
2.254939027578453e-005	-2.597947e+000	1.579158e+000
2.255447796390211e-005	-2.598972e+000	1.579302e+000
2.256431723915127e-005	-2.600955e+000	1.579581e+000
2.257437715558024e-005	-2.602983e+000	1.579866e+000
2.258798858498332e-005	-2.605726e+000	1.580251e+000
2.260142617395889e-005	-2.608434e+000	1.580632e+000
2.261784393733641e-005	-2.611743e+000	1.581096e+000
2.263287520991243e-005	-2.614772e+000	1.581521e+000
2.264890818911929e-005	-2.618004e+000	1.581974e+000
2.266368428087287e-005	-2.620982e+000	1.582391e+000
2.268006130850164e-005	-2.624282e+000	1.582853e+000
2.269788519115336e-005	-2.627875e+000	1.583356e+000
2.270973204880232e-005	-2.630262e+000	1.583690e+000
2.271855075178350e-005	-2.632040e+000	1.583938e+000
2.272916285328422e-005	-2.634179e+000	1.584237e+000
2.273961550210385e-005	-2.636285e+000	1.584532e+000
2.275152674001651e-005	-2.638686e+000	1.584867e+000
2.276313496388086e-005	-2.641025e+000	1.585194e+000
2.277605108636600e-005	-2.643629e+000	1.585557e+000
2.278866405209710e-005	-2.646171e+000	1.585911e+000
2.280214650882476e-005	-2.648888e+000	1.586290e+000
2.281526375568811e-005	-2.651532e+000	1.586658e+000
2.282847291504037e-005	-2.654194e+000	1.587029e+000
2.284794770724395e-005	-2.658119e+000	1.587575e+000
2.286484939881695e-005	-2.661525e+000	1.588049e+000
2.288174803970720e-005	-2.664931e+000	1.588523e+000
2.289724691973837e-005	-2.668055e+000	1.588957e+000
2.291144473295882e-005	-2.670916e+000	1.589354e+000
2.292735256428685e-005	-2.674122e+000	1.589799e+000
2.294214602722956e-005	-2.677104e+000	1.590212e+000
2.295931721211088e-005	-2.680565e+000	1.590692e+000
2.297762118333934e-005	-2.684254e+000	1.591203e+000
2.300000000000002e-005	-2.688764e+000	1.591828e+000
2.300239082831681e-005	-2.689232e+000	1.591894e+000
2.300717248495039e-005	-2.690167e+000	1.592028e+000
2.301673579821755e-005	-2.692037e+000	1.592294e+000
2.303586242475187e-005	-2.695778e+000	1.592827e+000
2.306883755833411e-005	-2.702227e+000	1.593744e+000
2.310425879275689e-005	-2.709154e+000	1.594729e+000
2.314271432740309e-005	-2.716675e+000	1.595796e+000
2.317736189488546e-005	-2.723451e+000	1.596757e+000
2.321143177063116e-005	-2.730114e+000	1.597700e+000
2.324866814517636e-005	-2.737397e+000	1.598730e+000
2.328337029053611e-005	-2.744184e+000	1.599688e+000
2.331609606630899e-005	-2.750584e+000	1.600591e+000
2.334504372654444e-005	-2.756245e+000	1.601388e+000
2.337445356064591e-005	-2.761997e+000	1.602197e+000
2.340313487680435e-005	-2.767606e+000	1.602985e+000
2.344140515529052e-005	-2.775091e+000	1.604036e+000
2.348599133795504e-005	-2.783811e+000	1.605258e+000
2.353923741142748e-005	-2.794224e+000	1.606714e+000
2.359665372364712e-005	-2.805453e+000	1.608281e+000
2.366532422372293e-005	-2.818883e+000	1.610151e+000
2.374417095956814e-005	-2.834304e+000	1.612291e+000
2.384293012475179e-005	-2.853618e+000	1.614963e+000
2.396440304018805e-005	-2.877375e+000	1.618239e+000
2.399999999999993e-005	-2.884337e+000	1.619196e+000
2.400428748295888e-005	-2.885345e+000	1.619311e+000
2.401286244887698e-005	-2.887360e+000	1.619541e+000
2.444827374424629e-005	-2.993078e+000	1.631128e+000
2.488368503961560e-005	-3.090043e+000	1.642509e+000
2.531909633498490e-005	-3.178256e+000	1.653683e+000
2.575450763035421e-005	-3.257717e+000	1.664650e+000
2.618991892572352e-005	-3.328426e+000	1.675410e+000
2.662533022109283e-005	-3.390382e+000	1.685964e+000
2.706074151646214e-005	-3.443587e+000	1.696310e+000
2.752333204785530e-005	-3.538291e+000	1.707065e+000
2.798592257924845e-005	-3.627317e+000	1.717571e+000
2.844851311064161e-005	-3.710665e+000	1.727828e+000
2.891110364203477e-005	-3.788335e+000	1.737836e+000
2.937369417342792e-005	-3.860328e+000	1.747595e+000
2.983628470482108e-005	-3.926643e+000	1.757105e+000
3.029887523621423e-005	-3.987280e+000	1.766367e+000
3.057064304835731e-005	-4.024421e+000	1.771686e+000
3.084241086050040e-005	-4.060071e+000	1.776915e+000
3.111417867264348e-005	-4.094231e+000	1.782054e+000
3.138594648478657e-005	-4.126901e+000	1.787104e+000
3.165771429692965e-005	-4.158080e+000	1.792063e+000
3.192948210907274e-005	-4.187769e+000	1.796933e+000
3.220124992121582e-005	-4.215967e+000	1.801713e+000
3.266514577537022e-005	-4.284822e+000	1.809663e+000
3.312904162952462e-005	-4.347645e+000	1.817340e+000
3.359293748367902e-005	-4.404434e+000	1.824747e+000
3.405683333783343e-005	-4.455190e+000	1.831881e+000
3.452072919198783e-005	-4.499914e+000	1.838744e+000
3.498462504614223e-005	-4.538604e+000	1.845336e+000
3.544852090029663e-005	-4.571262e+000	1.851655e+000
3.609873220025424e-005	-4.637351e+000	1.860053e+000
3.674894350021185e-005	-4.696976e+000	1.867896e+000
3.739915480016945e-005	-4.750135e+000	1.875185e+000
3.804936610012706e-005	-4.796829e+000	1.881918e+000
3.869957740008467e-005	-4.837058e+000	1.888096e+000
3.934978870004228e-005	-4.870822e+000	1.893720e+000
3.999999999999989e-005	-4.898120e+000	1.898789e+000
4.081091507845563e-005	-4.933847e+000	1.904317e+000
4.162183015691137e-005	-4.961746e+000	1.908958e+000
4.243274523536711e-005	-4.981818e+000	1.912709e+000
4.324366031382285e-005	-4.994064e+000	1.915572e+000
4.405457539227859e-005	-4.998482e+000	1.917547e+000
4.486549047073433e-005	-4.995074e+000	1.918633e+000
4.567640554919007e-005	-4.983839e+000	1.918831e+000
4.636829703592160e-005	-4.968865e+000	1.918299e+000
4.706018852265312e-005	-4.948891e+000	1.917118e+000
4.775208000938465e-005	-4.923919e+000	1.915288e+000
4.844397149611618e-005	-4.893947e+000	1.912807e+000
4.913586298284770e-005	-4.858977e+000	1.909677e+000
4.982775446957922e-005	-4.819008e+000	1.905897e+000
5.051964595631075e-005	-4.774039e+000	1.901466e+000
5.105765571765413e-005	-4.734954e+000	1.897581e+000
5.159566547899751e-005	-4.693635e+000	1.893310e+000
5.213367524034089e-005	-4.650082e+000	1.888655e+000
5.267168500168427e-005	-4.604295e+000	1.883615e+000
5.320969476302764e-005	-4.556274e+000	1.878190e+000
5.374770452437102e-005	-4.506019e+000	1.872380e+000
5.428571428571440e-005	-4.453529e+000	1.866186e+000
5.428571528571439e-005	-4.453529e+000	1.866186e+000
5.428571728571439e-005	-4.453529e+000	1.866186e+000
5.428572128571437e-005	-4.453529e+000	1.866186e+000
5.428572428571436e-005	-4.453528e+000	1.866186e+000
5.428572445438716e-005	-4.453528e+000	1.866186e+000
5.428572479173255e-005	-4.453528e+000	1.866186e+000
5.428572546642332e-005	-4.453528e+000	1.866186e+000
5.428572681580508e-005	-4.453528e+000	1.866186e+000
5.428572951456860e-005	-4.453528e+000	1.866186e+000
5.428573491209543e-005	-4.453527e+000	1.866185e+000
5.428574570714908e-005	-4.453526e+000	1.866185e+000
5.428576003784348e-005	-4.453525e+000	1.866185e+000
5.428577443325434e-005	-4.453523e+000	1.866185e+000
5.428579085834219e-005	-4.453521e+000	1.866185e+000
5.428581233459895e-005	-4.453519e+000	1.866184e+000
5.428582477092674e-005	-4.453517e+000	1.866184e+000
5.428583354384902e-005	-4.453516e+000	1.866184e+000
5.428584307768086e-005	-4.453516e+000	1.866184e+000
5.428585345811370e-005	-4.453514e+000	1.866184e+000
5.428586305654382e-005	-4.453513e+000	1.866184e+000
5.428588225340428e-005	-4.453511e+000	1.866184e+000
5.428592018653965e-005	-4.453507e+000	1.866183e+000
5.428594954985460e-005	-4.453504e+000	1.866183e+000
5.428596610353273e-005	-4.453502e+000	1.866183e+000
5.428597589712705e-005	-4.453501e+000	1.866183e+000
5.428598735404645e-005	-4.453500e+000	1.866182e+000
5.428599717702352e-005	-4.453498e+000	1.866182e+000
5.428600772354030e-005	-4.453497e+000	1.866182e+000
5.428602574837193e-005	-4.453496e+000	1.866182e+000
5.428604430530505e-005	-4.453494e+000	1.866182e+000
5.428608141917128e-005	-4.453489e+000	1.866181e+000
5.428612263390581e-005	-4.453485e+000	1.866181e+000
5.428612703620812e-005	-4.453485e+000	1.866181e+000
5.428613584081274e-005	-4.453484e+000	1.866181e+000
5.428615345002196e-005	-4.453482e+000	1.866180e+000
5.428618866844042e-005	-4.453478e+000	1.866180e+000
5.428623493212211e-005	-4.453473e+000	1.866179e+000
5.428628934109618e-005	-4.453467e+000	1.866179e+000
5.428634083628624e-005	-4.453461e+000	1.866178e+000
5.428641095388460e-005	-4.453454e+000	1.866177e+000
5.428649861529571e-005	-4.453444e+000	1.866176e+000
5.428661546974414e-005	-4.453431e+000	1.866175e+000
5.428673491424227e-005	-4.453418e+000	1.866174e+000
5.428686428604699e-005	-4.453404e+000	1.866172e+000
5.428707842397140e-005	-4.453381e+000	1.866169e+000
5.428733247347245e-005	-4.453353e+000	1.866166e+000
5.428765580994810e-005	-4.453318e+000	1.866163e+000
5.428800079959823e-005	-4.453280e+000	1.866159e+000
5.428839238271811e-005	-4.453237e+000	1.866154e+000
5.428877887344447e-005	-4.453195e+000	1.866149e+000
5.428931101737777e-005	-4.453137e+000	1.866143e+000
5.428992129984816e-005	-4.453071e+000	1.866136e+000
5.429086157175645e-005	-4.452968e+000	1.866125e+000
5.429194469600451e-005	-4.452850e+000	1.866112e+000
5.429390075744407e-005	-4.452636e+000	1.866089e+000
5.429616843927719e-005	-4.452389e+000	1.866062e+000
5.429956057590715e-005	-4.452019e+000	1.866021e+000
5.430304022949087e-005	-4.451640e+000	1.865980e+000
5.430845042028861e-005	-4.451049e+000	1.865916e+000
5.431557338565957e-005	-4.450272e+000	1.865831e+000
5.432534597808324e-005	-4.449206e+000	1.865715e+000
5.433601354211805e-005	-4.448043e+000	1.865587e+000
5.434480457725877e-005	-4.447083e+000	1.865482e+000
5.435181463569008e-005	-4.446319e+000	1.865399e+000
5.435881482658989e-005	-4.445555e+000	1.865315e+000
5.436583310193229e-005	-4.444790e+000	1.865231e+000
5.437489040522963e-005	-4.443802e+000	1.865123e+000
5.438772089741786e-005	-4.442402e+000	1.864969e+000
5.440171852303158e-005	-4.440876e+000	1.864801e+000
5.441349459941883e-005	-4.439591e+000	1.864659e+000
5.442406463260045e-005	-4.438438e+000	1.864532e+000
5.443469470688979e-005	-4.437278e+000	1.864404e+000
5.444638479682731e-005	-4.436003e+000	1.864263e+000
5.445857477142041e-005	-4.434673e+000	1.864115e+000
5.447144543470274e-005	-4.433270e+000	1.863960e+000
5.448452454212657e-005	-4.431843e+000	1.863801e+000
5.449808148709858e-005	-4.430364e+000	1.863637e+000
5.451239561306449e-005	-4.428802e+000	1.863463e+000
5.452743347543715e-005	-4.427162e+000	1.863280e+000
5.454348217952959e-005	-4.425411e+000	1.863084e+000
5.455853528961658e-005	-4.423769e+000	1.862900e+000
5.457511608725901e-005	-4.421961e+000	1.862698e+000
5.459010900897977e-005	-4.420325e+000	1.862514e+000
5.460640891183019e-005	-4.418547e+000	1.862314e+000
5.462204361857516e-005	-4.416842e+000	1.862122e+000
5.463792665720882e-005	-4.415109e+000	1.861926e+000
5.465467118125002e-005	-4.413282e+000	1.861720e+000
5.467431821092679e-005	-4.411139e+000	1.861477e+000
5.468544263410825e-005	-4.409926e+000	1.861339e+000
5.469629145912563e-005	-4.408742e+000	1.861205e+000
5.470909271895448e-005	-4.407346e+000	1.861046e+000
5.472269700726885e-005	-4.405862e+000	1.860877e+000
5.473717891166545e-005	-4.404282e+000	1.860697e+000
5.475428158605413e-005	-4.402417e+000	1.860483e+000
5.477481528160552e-005	-4.400177e+000	1.860227e+000
5.480204664746308e-005	-4.397206e+000	1.859886e+000
5.488396840304648e-005	-4.388270e+000	1.858854e+000
5.496953113542794e-005	-4.378937e+000	1.857767e+000
5.499999999999993e-005	-4.375613e+000	1.857378e+000
5.500494998936559e-005	-4.374868e+000	1.857315e+000
5.501484996809671e-005	-4.373378e+000	1.857188e+000
5.513915651873476e-005	-4.354674e+000	1.855583e+000
5.526346306937280e-005	-4.335969e+000	1.853959e+000
5.538776962001085e-005	-4.317264e+000	1.852314e+000
5.551207617064890e-005	-4.298559e+000	1.850649e+000
5.563638272128696e-005	-4.279854e+000	1.848964e+000
5.576068927192500e-005	-4.261149e+000	1.847259e+000
5.588499582256305e-005	-4.242444e+000	1.845534e+000
5.600000000000006e-005	-4.225139e+000	1.843932e+000
5.600605555642268e-005	-4.224353e+000	1.843847e+000
5.601816666926814e-005	-4.222781e+000	1.843676e+000
5.634487210305216e-005	-4.181577e+000	1.838992e+000
5.667157753683617e-005	-4.140952e+000	1.834172e+000
