time	V(vin)	V(vout)
0.000000000000000e+000	4.000000e+000	-1.423651e+000
2.142857142857149e-006	3.785714e+000	-1.398764e+000
4.285714285714298e-006	3.571429e+000	-1.368014e+000
6.428571428571447e-006	3.357143e+000	-1.331402e+000
8.571428571428596e-006	3.142857e+000	-1.288927e+000
1.071428571428575e-005	2.928571e+000	-1.240589e+000
1.285714285714289e-005	2.714286e+000	-1.186388e+000
1.500000000000004e-005	2.500000e+000	-1.126324e+000
1.607709893424043e-005	2.392290e+000	-1.094330e+000
1.715419786848081e-005	2.284580e+000	-1.061183e+000
1.823129680272120e-005	2.176870e+000	-1.026884e+000
1.930839573696158e-005	2.069160e+000	-9.914322e-001
2.038549467120197e-005	1.961451e+000	-9.548283e-001
2.146259360544236e-005	1.853741e+000	-9.170722e-001
2.253969253968274e-005	1.746031e+000	-8.781636e-001
2.253969353968274e-005	1.746031e+000	-8.781636e-001
2.253969553968273e-005	1.746030e+000	-8.781635e-001
2.253969953968271e-005	1.746030e+000	-8.781634e-001
2.253970253968270e-005	1.746030e+000	-8.781633e-001
2.253970278099943e-005	1.746030e+000	-8.781633e-001
2.253970326363290e-005	1.746030e+000	-8.781632e-001
2.253970422889983e-005	1.746030e+000	-8.781632e-001
2.253970615943369e-005	1.746029e+000	-8.781632e-001
2.253971002050140e-005	1.746029e+000	-8.781630e-001
2.253971774263705e-005	1.746028e+000	-8.781627e-001
2.253973318690834e-005	1.746027e+000	-8.781621e-001
2.253976407545072e-005	1.746024e+000	-8.781610e-001
2.253980024982064e-005	1.746020e+000	-8.781597e-001
2.253984627083663e-005	1.746015e+000	-8.781580e-001
2.253990235755220e-005	1.746010e+000	-8.781559e-001
2.253999706674581e-005	1.746000e+000	-8.781525e-001
2.254011917129277e-005	1.745988e+000	-8.781481e-001
2.254023605840452e-005	1.745976e+000	-8.781438e-001
2.254025016874221e-005	1.745975e+000	-8.781433e-001
2.254027838941735e-005	1.745972e+000	-8.781422e-001
2.254033483076764e-005	1.745967e+000	-8.781402e-001
2.254038647504677e-005	1.745961e+000	-8.781383e-001
2.254041609735182e-005	1.745958e+000	-8.781372e-001
2.254045204518789e-005	1.745955e+000	-8.781359e-001
2.254047592415679e-005	1.745952e+000	-8.781350e-001
2.254050276096755e-005	1.745950e+000	-8.781341e-001
2.254055643458909e-005	1.745944e+000	-8.781321e-001
2.254060222225333e-005	1.745940e+000	-8.781304e-001
2.254063434513581e-005	1.745937e+000	-8.781292e-001
2.254066822197855e-005	1.745933e+000	-8.781280e-001
2.254069876141455e-005	1.745930e+000	-8.781269e-001
2.254075984028632e-005	1.745924e+000	-8.781247e-001
2.254081986339911e-005	1.745918e+000	-8.781224e-001
2.254088365887083e-005	1.745912e+000	-8.781201e-001
2.254092985274530e-005	1.745907e+000	-8.781185e-001
2.254095369558511e-005	1.745905e+000	-8.781176e-001
2.254098848215587e-005	1.745901e+000	-8.781163e-001
2.254100825331519e-005	1.745899e+000	-8.781156e-001
2.254103230956068e-005	1.745897e+000	-8.781147e-001
2.254108042205189e-005	1.745892e+000	-8.781130e-001
2.254117664703429e-005	1.745882e+000	-8.781095e-001
2.254128154412336e-005	1.745872e+000	-8.781056e-001
2.254139637285560e-005	1.745860e+000	-8.781014e-001
2.254149974673493e-005	1.745850e+000	-8.780977e-001
2.254163586917096e-005	1.745836e+000	-8.780927e-001
2.254182567795835e-005	1.745817e+000	-8.780857e-001
2.254203415906898e-005	1.745797e+000	-8.780782e-001
2.254227687306046e-005	1.745772e+000	-8.780693e-001
2.254250750761727e-005	1.745749e+000	-8.780609e-001
2.254284716574420e-005	1.745715e+000	-8.780485e-001
2.254320513688500e-005	1.745679e+000	-8.780354e-001
2.254360213749360e-005	1.745640e+000	-8.780209e-001
2.254405934561479e-005	1.745594e+000	-8.780042e-001
2.254468865055715e-005	1.745531e+000	-8.779812e-001
2.254550380569997e-005	1.745450e+000	-8.779514e-001
2.254666027446881e-005	1.745334e+000	-8.779092e-001
2.254897321200670e-005	1.745103e+000	-8.778247e-001
2.255359908708249e-005	1.744640e+000	-8.776558e-001
2.256285083723384e-005	1.743715e+000	-8.773178e-001
2.257272591587364e-005	1.742727e+000	-8.769571e-001
2.258587432239778e-005	1.741413e+000	-8.764765e-001
2.259902838977891e-005	1.740097e+000	-8.759956e-001
2.261488010319194e-005	1.738512e+000	-8.754160e-001
2.262974834038958e-005	1.737025e+000	-8.748720e-001
2.264552948395013e-005	1.735447e+000	-8.742945e-001
2.266016831887498e-005	1.733983e+000	-8.737586e-001
2.267600714574028e-005	1.732399e+000	-8.731785e-001
2.269288668819676e-005	1.730711e+000	-8.725601e-001
2.270668872820137e-005	1.729331e+000	-8.720543e-001
2.271688661464682e-005	1.728311e+000	-8.716804e-001
2.272941340613873e-005	1.727059e+000	-8.712211e-001
2.274084331235814e-005	1.725916e+000	-8.708018e-001
2.275428769505056e-005	1.724571e+000	-8.703086e-001
2.276708787582265e-005	1.723291e+000	-8.698388e-001
2.278187645104080e-005	1.721812e+000	-8.692958e-001
2.279637715337695e-005	1.720362e+000	-8.687632e-001
2.281302873568224e-005	1.718697e+000	-8.681514e-001
2.283078532781010e-005	1.716921e+000	-8.674988e-001
2.284982912508079e-005	1.715017e+000	-8.667985e-001
2.286301970719391e-005	1.713698e+000	-8.663133e-001
2.287534389911199e-005	1.712466e+000	-8.658599e-001
2.289075564484468e-005	1.710924e+000	-8.652926e-001
2.290508649967432e-005	1.709491e+000	-8.647649e-001
2.292227360819457e-005	1.707773e+000	-8.641319e-001
2.293979218489822e-005	1.706021e+000	-8.634863e-001
2.296302860419169e-005	1.703697e+000	-8.626295e-001
2.299279280504243e-005	1.700721e+000	-8.615317e-001
2.300000000000002e-005	1.700000e+000	-8.612658e-001
2.300567433640680e-005	1.699433e+000	-8.610563e-001
2.301702300922036e-005	1.698298e+000	-8.606373e-001
2.303972035484748e-005	1.696028e+000	-8.597989e-001
2.308232491729251e-005	1.691767e+000	-8.582240e-001
2.312571181663161e-005	1.687429e+000	-8.566189e-001
2.316305678554077e-005	1.683694e+000	-8.552361e-001
2.319680134823632e-005	1.680320e+000	-8.539855e-001
2.323425001112271e-005	1.676575e+000	-8.525965e-001
2.327089251934330e-005	1.672911e+000	-8.512362e-001
2.331298877541826e-005	1.668701e+000	-8.496720e-001
2.335742632238918e-005	1.664257e+000	-8.480192e-001
2.340098203121809e-005	1.659902e+000	-8.463978e-001
2.344207200718975e-005	1.655793e+000	-8.448666e-001
2.348202223821107e-005	1.651798e+000	-8.433765e-001
2.352146104300768e-005	1.647854e+000	-8.419041e-001
2.356985087736182e-005	1.643015e+000	-8.400957e-001
2.362257132353844e-005	1.637743e+000	-8.381232e-001
2.368613146160286e-005	1.631387e+000	-8.357421e-001
2.375680334029554e-005	1.624320e+000	-8.330905e-001
2.394894365669270e-005	1.605106e+000	-8.258617e-001
2.399999999999993e-005	1.600000e+000	-8.239368e-001
2.401384163340016e-005	1.598616e+000	-8.234141e-001
2.404152490020060e-005	1.595847e+000	-8.223684e-001
2.578416420037768e-005	1.421584e+000	-7.547853e-001
2.752680350055475e-005	1.247320e+000	-6.854487e-001
2.926944280073183e-005	1.073056e+000	-6.143586e-001
3.101208210090891e-005	8.987918e-001	-5.415149e-001
3.275472140108599e-005	7.245279e-001	-4.669178e-001
3.449736070126307e-005	5.502639e-001	-3.905672e-001
3.624000000144014e-005	3.760000e-001	-3.124631e-001
3.999999999999989e-005	1.776357e-014	-1.420841e-001
4.048427684359023e-005	-4.842768e-002	-1.199160e-001
4.096855368718057e-005	-9.685537e-002	-9.772911e-002
4.145283053077091e-005	-1.452831e-001	-7.552358e-002
4.193710737436125e-005	-1.937107e-001	-5.329937e-002
4.242138421795158e-005	-2.421384e-001	-3.105646e-002
4.290566106154192e-005	-2.905661e-001	-8.794877e-003
4.338993790513226e-005	-3.389938e-001	1.348540e-002
4.434758365840110e-005	-4.347584e-001	5.761499e-002
4.530522941166995e-005	-5.305229e-001	1.016109e-001
4.626287516493879e-005	-6.262875e-001	1.454730e-001
4.722052091820764e-005	-7.220521e-001	1.892014e-001
4.817816667147648e-005	-8.178166e-001	2.327961e-001
4.913581242474532e-005	-9.135812e-001	2.762571e-001
5.009345817801416e-005	-1.009346e+000	3.195843e-001
5.428571428571440e-005	-1.428571e+000	5.051317e-001
5.428571528571439e-005	-1.428572e+000	5.051317e-001
5.428571728571439e-005	-1.428572e+000	5.051318e-001
5.428572128571437e-005	-1.428572e+000	5.051320e-001
5.428572428571436e-005	-1.428572e+000	5.051321e-001
5.428572445438716e-005	-1.428572e+000	5.051321e-001
5.428572479173255e-005	-1.428573e+000	5.051321e-001
5.428572546642332e-005	-1.428573e+000	5.051322e-001
5.428572681580508e-005	-1.428573e+000	5.051323e-001
5.428572951456860e-005	-1.428573e+000	5.051324e-001
5.428573491209543e-005	-1.428573e+000	5.051326e-001
5.428573953463107e-005	-1.428574e+000	5.051328e-001
5.428574349383426e-005	-1.428574e+000	5.051330e-001
5.428574726086067e-005	-1.428575e+000	5.051332e-001
5.428575127956617e-005	-1.428575e+000	5.051333e-001
5.428575843367117e-005	-1.428576e+000	5.051336e-001
5.428576712557883e-005	-1.428577e+000	5.051340e-001
5.428577732496899e-005	-1.428578e+000	5.051344e-001
5.428579008289348e-005	-1.428579e+000	5.051350e-001
5.428580321064909e-005	-1.428580e+000	5.051355e-001
5.428582013192792e-005	-1.428582e+000	5.051363e-001
5.428583970365909e-005	-1.428584e+000	5.051371e-001
5.428586626614654e-005	-1.428587e+000	5.051383e-001
5.428590373670922e-005	-1.428590e+000	5.051399e-001
5.428595385083236e-005	-1.428595e+000	5.051421e-001
5.428598616708360e-005	-1.428599e+000	5.051435e-001
5.428600247720937e-005	-1.428600e+000	5.051442e-001
5.428602042203534e-005	-1.428602e+000	5.051450e-001
5.428603895649966e-005	-1.428604e+000	5.051458e-001
5.428605713319245e-005	-1.428606e+000	5.051466e-001
5.428607898930443e-005	-1.428608e+000	5.051475e-001
5.428610289771223e-005	-1.428610e+000	5.051485e-001
5.428615071452763e-005	-1.428615e+000	5.051506e-001
5.428621019228259e-005	-1.428621e+000	5.051532e-001
5.428627668220033e-005	-1.428628e+000	5.051561e-001
5.428636323554599e-005	-1.428636e+000	5.051599e-001
5.428645322918049e-005	-1.428645e+000	5.051637e-001
5.428655099984120e-005	-1.428655e+000	5.051680e-001
5.428664398868396e-005	-1.428664e+000	5.051720e-001
5.428675589828707e-005	-1.428676e+000	5.051769e-001
5.428688212753764e-005	-1.428688e+000	5.051824e-001
5.428701446221732e-005	-1.428701e+000	5.051881e-001
5.428715772754574e-005	-1.428716e+000	5.051943e-001
5.428731666226811e-005	-1.428732e+000	5.052012e-001
5.428747749022865e-005	-1.428748e+000	5.052082e-001
5.428764437114420e-005	-1.428764e+000	5.052154e-001
5.428785143808831e-005	-1.428785e+000	5.052244e-001
5.428810895068506e-005	-1.428811e+000	5.052356e-001
5.428844998572706e-005	-1.428845e+000	5.052504e-001
5.428889821739130e-005	-1.428890e+000	5.052698e-001
5.428948831831125e-005	-1.428949e+000	5.052955e-001
5.429007836771989e-005	-1.429008e+000	5.053210e-001
5.429081592944556e-005	-1.429082e+000	5.053530e-001
5.429176842184345e-005	-1.429177e+000	5.053943e-001
5.429275811862696e-005	-1.429276e+000	5.054373e-001
5.429473751219398e-005	-1.429474e+000	5.055231e-001
5.429662533057802e-005	-1.429663e+000	5.056050e-001
5.429936873351817e-005	-1.429937e+000	5.057241e-001
5.430215671914135e-005	-1.430216e+000	5.058450e-001
5.430651333929257e-005	-1.430651e+000	5.060340e-001
5.431170173693899e-005	-1.431170e+000	5.062590e-001
5.432098240539234e-005	-1.432098e+000	5.066616e-001
5.433380156568768e-005	-1.433380e+000	5.072175e-001
5.434976576670068e-005	-1.434977e+000	5.079097e-001
5.436547547956090e-005	-1.436548e+000	5.085908e-001
5.438153413742292e-005	-1.438153e+000	5.092868e-001
5.439654413521493e-005	-1.439654e+000	5.099373e-001
5.441198358920887e-005	-1.441198e+000	5.106063e-001
5.442795942949452e-005	-1.442796e+000	5.112984e-001
5.444812963194246e-005	-1.444813e+000	5.121720e-001
5.445852621507722e-005	-1.445853e+000	5.126223e-001
5.446925739354129e-005	-1.446926e+000	5.130870e-001
5.448204381545800e-005	-1.448204e+000	5.136406e-001
5.449455711485380e-005	-1.449456e+000	5.141823e-001
5.450852301641142e-005	-1.450852e+000	5.147868e-001
5.453740201518537e-005	-1.453740e+000	5.160364e-001
5.455273317119956e-005	-1.455273e+000	5.166997e-001
5.457016685798195e-005	-1.457017e+000	5.174537e-001
5.458541557258915e-005	-1.458542e+000	5.181132e-001
5.459981298935944e-005	-1.459981e+000	5.187357e-001
5.461269231010692e-005	-1.461269e+000	5.192925e-001
5.462713689231022e-005	-1.462714e+000	5.199169e-001
5.464062052179032e-005	-1.464062e+000	5.204996e-001
5.465060844240892e-005	-1.465061e+000	5.209312e-001
5.466190246308420e-005	-1.466190e+000	5.214192e-001
5.467294006718444e-005	-1.467294e+000	5.218961e-001
5.468541530549275e-005	-1.468542e+000	5.224349e-001
5.469780952997261e-005	-1.469781e+000	5.229703e-001
5.471163283569448e-005	-1.471163e+000	5.235672e-001
5.472553408181527e-005	-1.472553e+000	5.241674e-001
5.474092950650991e-005	-1.474093e+000	5.248320e-001
5.475725794950584e-005	-1.475726e+000	5.255367e-001
5.477783889577185e-005	-1.477784e+000	5.264248e-001
5.478816624413137e-005	-1.478817e+000	5.268704e-001
5.479837358100662e-005	-1.479837e+000	5.273108e-001
5.481081511449237e-005	-1.481081e+000	5.278474e-001
5.482445408961333e-005	-1.482445e+000	5.284356e-001
5.483873837578801e-005	-1.483874e+000	5.290515e-001
5.485419540727089e-005	-1.485420e+000	5.297180e-001
5.487154062898511e-005	-1.487154e+000	5.304656e-001
5.489225875465720e-005	-1.489226e+000	5.313584e-001
5.491944586710849e-005	-1.491945e+000	5.325297e-001
5.495374366348035e-005	-1.495374e+000	5.340068e-001
5.498768237027535e-005	-1.498768e+000	5.354679e-001
5.499999999999993e-005	-1.500000e+000	5.359981e-001
5.500394906440441e-005	-1.500395e+000	5.361681e-001
5.501184719321358e-005	-1.501185e+000	5.365080e-001
5.590892423663440e-005	-1.590892e+000	5.748949e-001
5.600000000000006e-005	-1.600000e+000	5.787729e-001
5.607048117565756e-005	-1.607048e+000	5.817652e-001
5.621144352697233e-005	-1.621144e+000	5.877415e-001
5.711228503522239e-005	-1.711228e+000	6.257709e-001
5.801312654347246e-005	-1.801313e+000	6.632417e-001
5.891396805172252e-005	-1.891397e+000	7.001540e-001
5.981480955997259e-005	-1.981481e+000	7.365078e-001
6.071565106822265e-005	-2.071565e+000	7.723030e-001
6.161649257647271e-005	-2.161649e+000	8.075396e-001
6.251733408472278e-005	-2.251733e+000	8.422177e-001
6.552975010275632e-005	-2.552975e+000	9.530504e-001
6.618252772184593e-005	-2.618253e+000	9.760357e-001
6.683530534093553e-005	-2.683531e+000	9.985956e-001
6.748808296002514e-005	-2.748808e+000	1.020730e+000
6.814086057911475e-005	-2.814086e+000	1.042440e+000
6.879363819820436e-005	-2.879364e+000	1.063724e+000
6.944641581729395e-005	-2.944642e+000	1.084583e+000
7.009919343638356e-005	-3.009919e+000	1.105016e+000
7.073284033404940e-005	-3.073284e+000	1.124415e+000
7.136648723171524e-005	-3.136649e+000	1.143356e+000
7.200013412938108e-005	-3.200013e+000	1.161841e+000
7.263378102704692e-005	-3.263378e+000	1.179868e+000
7.326742792471274e-005	-3.326743e+000	1.197439e+000
7.390107482237858e-005	-3.390107e+000	1.214553e+000
7.453472172004442e-005	-3.453472e+000	1.231210e+000
7.496512648022743e-005	-3.496513e+000	1.242272e+000
7.539553124041043e-005	-3.539553e+000	1.253099e+000
7.582593600059344e-005	-3.582594e+000	1.263692e+000
7.625634076077646e-005	-3.625634e+000	1.274052e+000
7.668674552095946e-005	-3.668675e+000	1.284177e+000
7.711715028114247e-005	-3.711715e+000	1.294068e+000
7.754755504132548e-005	-3.754755e+000	1.303725e+000
7.806819003542182e-005	-3.806819e+000	1.315131e+000
7.858882502951817e-005	-3.858883e+000	1.326181e+000
7.910946002361452e-005	-3.910946e+000	1.336876e+000
7.963009501771086e-005	-3.963010e+000	1.347214e+000
8.015073001180721e-005	-4.015073e+000	1.357198e+000
8.067136500590355e-005	-4.067137e+000	1.366825e+000
8.119199999999990e-005	-4.119200e+000	1.376097e+000
8.162742857142457e-005	-4.162743e+000	1.383573e+000
8.206285714284925e-005	-4.206286e+000	1.390791e+000
8.249828571427393e-005	-4.249829e+000	1.397751e+000
8.293371428569861e-005	-4.293372e+000	1.404453e+000
8.336914285712329e-005	-4.336914e+000	1.410896e+000
8.380457142854797e-005	-4.380457e+000	1.417081e+000
8.423999999997264e-005	-4.424000e+000	1.423008e+000
8.449596514736890e-005	-4.449596e+000	1.426372e+000
8.475193029476515e-005	-4.475193e+000	1.429644e+000
8.500789544216140e-005	-4.500790e+000	1.432826e+000
8.526386058955765e-005	-4.526386e+000	1.435916e+000
8.551982573695390e-005	-4.551983e+000	1.438915e+000
8.577579088435016e-005	-4.577579e+000	1.441823e+000
8.603175603174641e-005	-4.603176e+000	1.444639e+000
8.603175703174640e-005	-4.603176e+000	1.444639e+000
8.603175903174640e-005	-4.603176e+000	1.444639e+000
8.603176303174638e-005	-4.603176e+000	1.444639e+000
8.603176603174637e-005	-4.603177e+000	1.444639e+000
8.603176627306310e-005	-4.603177e+000	1.444639e+000
8.603176675569656e-005	-4.603177e+000	1.444639e+000
8.603176772096371e-005	-4.603177e+000	1.444639e+000
8.603176965149778e-005	-4.603177e+000	1.444639e+000
8.603177351256615e-005	-4.603178e+000	1.444639e+000
8.603178123470288e-005	-4.603178e+000	1.444639e+000
8.603179667897635e-005	-4.603179e+000	1.444640e+000
8.603182756752328e-005	-4.603183e+000	1.444640e+000
8.603186374130231e-005	-4.603187e+000	1.444640e+000
8.603190976126662e-005	-4.603191e+000	1.444641e+000
8.603196564454033e-005	-4.603197e+000	1.444641e+000
8.603204762961726e-005	-4.603205e+000	1.444642e+000
8.603211491755528e-005	-4.603211e+000	1.444643e+000
8.603216274656622e-005	-4.603216e+000	1.444643e+000
8.603222349542225e-005	-4.603222e+000	1.444644e+000
8.603226184369082e-005	-4.603226e+000	1.444645e+000
8.603228437038465e-005	-4.603229e+000	1.444645e+000
8.603230414238813e-005	-4.603230e+000	1.444645e+000
8.603232571111324e-005	-4.603232e+000	1.444645e+000
8.603236884856345e-005	-4.603237e+000	1.444646e+000
8.603239364009512e-005	-4.603240e+000	1.444646e+000
8.603244411966725e-005	-4.603244e+000	1.444647e+000
8.603249334812406e-005	-4.603250e+000	1.444647e+000
8.603259180503791e-005	-4.603259e+000	1.444648e+000
8.603278871886560e-005	-4.603279e+000	1.444650e+000
8.603291759118554e-005	-4.603292e+000	1.444652e+000
8.603300634807041e-005	-4.603301e+000	1.444653e+000
8.603307361992212e-005	-4.603307e+000	1.444653e+000
8.603314326651053e-005	-4.603314e+000	1.444654e+000
8.603319071968387e-005	-4.603319e+000	1.444655e+000
8.603322160652383e-005	-4.603322e+000	1.444655e+000
8.603325768506980e-005	-4.603326e+000	1.444655e+000
8.603332984216195e-005	-4.603333e+000	1.444656e+000
8.603347415634625e-005	-4.603347e+000	1.444658e+000
8.603367250891217e-005	-4.603367e+000	1.444660e+000
8.603386488907779e-005	-4.603386e+000	1.444662e+000
8.603397329868829e-005	-4.603397e+000	1.444663e+000
8.603406242709932e-005	-4.603406e+000	1.444664e+000
8.603414673485021e-005	-4.603415e+000	1.444665e+000
8.603431535035198e-005	-4.603432e+000	1.444667e+000
8.603453034322205e-005	-4.603453e+000	1.444669e+000
8.603477376181550e-005	-4.603477e+000	1.444672e+000
8.603506560728169e-005	-4.603507e+000	1.444675e+000
8.603539088996464e-005	-4.603539e+000	1.444678e+000
8.603579951912944e-005	-4.603580e+000	1.444683e+000
8.603627467672543e-005	-4.603628e+000	1.444688e+000
8.603692237975466e-005	-4.603692e+000	1.444695e+000
8.603767987767626e-005	-4.603768e+000	1.444703e+000
8.603905891022023e-005	-4.603906e+000	1.444718e+000
8.604105261010553e-005	-4.604105e+000	1.444740e+000
8.604504000987614e-005	-4.604504e+000	1.444783e+000
8.605301480941758e-005	-4.605301e+000	1.444869e+000
8.606343381434615e-005	-4.606343e+000	1.444981e+000
8.607575399894089e-005	-4.607575e+000	1.445113e+000
8.608921581183945e-005	-4.608922e+000	1.445258e+000
8.610391500069015e-005	-4.610392e+000	1.445415e+000
8.611700523478822e-005	-4.611701e+000	1.445556e+000
8.613106543657037e-005	-4.613107e+000	1.445706e+000
8.614511776902471e-005	-4.614512e+000	1.445855e+000
8.615963071790752e-005	-4.615963e+000	1.446010e+000
8.617368267776625e-005	-4.617368e+000	1.446159e+000
8.618895159285406e-005	-4.618895e+000	1.446321e+000
8.620057337086536e-005	-4.620057e+000	1.446444e+000
8.620953432448165e-005	-4.620954e+000	1.446539e+000
8.621967031591628e-005	-4.621967e+000	1.446646e+000
8.623002206339264e-005	-4.623002e+000	1.446755e+000
8.624140622211251e-005	-4.624141e+000	1.446875e+000
8.625286446288993e-005	-4.625287e+000	1.446995e+000
8.626517738493321e-005	-4.626518e+000	1.447124e+000
8.627737056978455e-005	-4.627737e+000	1.447252e+000
8.628991386488093e-005	-4.628992e+000	1.447383e+000
