time	V(vin)	V(vout)
0.000000000000000e+000	1.565226e-011	4.071602e+000
9.999999999999159e-007	-1.570538e-001	3.991776e+000
2.000000000000049e-006	-3.139526e-001	3.902610e+000
2.999999999999965e-006	-4.705416e-001	3.804239e+000
3.999999999999880e-006	-6.266662e-001	3.697038e+000
5.000000000000013e-006	-7.821723e-001	3.581419e+000
6.095822895297708e-006	-9.516875e-001	3.445468e+000
6.367848195969461e-006	-9.936085e-001	3.410232e+000
6.639873496641214e-006	-1.035449e+000	3.374487e+000
6.911898797312967e-006	-1.077210e+000	3.338234e+000
7.183924097984719e-006	-1.118890e+000	3.301472e+000
7.455949398656472e-006	-1.160490e+000	3.264201e+000
7.727974699328226e-006	-1.202010e+000	3.226421e+000
7.999999999999978e-006	-1.243449e+000	3.188132e+000
8.156874663540646e-006	-1.267303e+000	3.165737e+000
8.313749327081314e-006	-1.291125e+000	3.143204e+000
8.470623990621982e-006	-1.314914e+000	3.120533e+000
8.627498654162650e-006	-1.338671e+000	3.097726e+000
8.784373317703318e-006	-1.362396e+000	3.074781e+000
8.941247981243987e-006	-1.386089e+000	3.051698e+000
9.098122644784655e-006	-1.409750e+000	3.028479e+000
1.000000000000003e-005	-1.545085e+000	2.891894e+000
1.106279849266223e-005	-1.702968e+000	2.725040e+000
1.135097013656762e-005	-1.745465e+000	2.678735e+000
1.163914178047301e-005	-1.787811e+000	2.632065e+000
1.192731342437840e-005	-1.830006e+000	2.585032e+000
1.221548506828379e-005	-1.872048e+000	2.537634e+000
1.250365671218918e-005	-1.913939e+000	2.489873e+000
1.279182835609456e-005	-1.955679e+000	2.441748e+000
1.307999999999995e-005	-1.997266e+000	2.393258e+000
1.406399999999983e-005	-2.137989e+000	2.225378e+000
1.447771428571481e-005	-2.196576e+000	2.153682e+000
1.489142857142978e-005	-2.254768e+000	2.081569e+000
1.530514285714476e-005	-2.312564e+000	2.009039e+000
1.571885714285974e-005	-2.369965e+000	1.936092e+000
1.613257142857471e-005	-2.426971e+000	1.862728e+000
1.654628571428969e-005	-2.483582e+000	1.788947e+000
1.696000000000466e-005	-2.539797e+000	1.714749e+000
1.725142857143256e-005	-2.579130e+000	1.662339e+000
1.754285714286045e-005	-2.618239e+000	1.609850e+000
1.783428571428835e-005	-2.657123e+000	1.557281e+000
1.812571428571624e-005	-2.695783e+000	1.504632e+000
1.841714285714413e-005	-2.734219e+000	1.451904e+000
1.870857142857203e-005	-2.772430e+000	1.399095e+000
1.899999999999992e-005	-2.810417e+000	1.346207e+000
1.915200000002620e-005	-2.830133e+000	1.318619e+000
1.930400000005247e-005	-2.849784e+000	1.291030e+000
1.945600000007875e-005	-2.869369e+000	1.263440e+000
1.960800000010503e-005	-2.888888e+000	1.235850e+000
1.976000000013130e-005	-2.908342e+000	1.208259e+000
1.991200000015758e-005	-2.927731e+000	1.180667e+000
2.006400000018386e-005	-2.947053e+000	1.153075e+000
2.099999999999997e-005	-3.064535e+000	9.834180e-001
2.199999999999988e-005	-3.187120e+000	8.029848e-001
2.300000000000002e-005	-3.306559e+000	6.239736e-001
2.380952380952404e-005	-3.400864e+000	4.804947e-001
2.380952480952403e-005	-3.400864e+000	4.804945e-001
2.380952680952403e-005	-3.400864e+000	4.804942e-001
2.380953080952401e-005	-3.400865e+000	4.804935e-001
2.380953380952400e-005	-3.400865e+000	4.804929e-001
2.380953397819658e-005	-3.400865e+000	4.804929e-001
2.380953431554197e-005	-3.400865e+000	4.804929e-001
2.380953499023274e-005	-3.400865e+000	4.804927e-001
2.380953633961407e-005	-3.400865e+000	4.804925e-001
2.380953903837694e-005	-3.400866e+000	4.804920e-001
2.380954443590246e-005	-3.400866e+000	4.804911e-001
2.380955523095373e-005	-3.400867e+000	4.804892e-001
2.380956950034712e-005	-3.400869e+000	4.804866e-001
2.380958386985271e-005	-3.400871e+000	4.804841e-001
2.380960022992399e-005	-3.400872e+000	4.804812e-001
2.380962176777861e-005	-3.400875e+000	4.804774e-001
2.380963282606354e-005	-3.400876e+000	4.804755e-001
2.380964396726738e-005	-3.400877e+000	4.804735e-001
2.380965601301048e-005	-3.400879e+000	4.804714e-001
2.380967573075593e-005	-3.400881e+000	4.804679e-001
2.380969701185260e-005	-3.400884e+000	4.804642e-001
2.380972790606991e-005	-3.400887e+000	4.804587e-001
2.380978953587186e-005	-3.400894e+000	4.804479e-001
2.380980592961088e-005	-3.400896e+000	4.804450e-001
2.380982300777116e-005	-3.400898e+000	4.804420e-001
2.380984057476416e-005	-3.400900e+000	4.804389e-001
2.380985956340143e-005	-3.400902e+000	4.804355e-001
2.380989754067575e-005	-3.400907e+000	4.804288e-001
2.380994301525536e-005	-3.400912e+000	4.804208e-001
2.381001396970363e-005	-3.400920e+000	4.804083e-001
2.381006957679829e-005	-3.400927e+000	4.803985e-001
2.381012104179158e-005	-3.400933e+000	4.803894e-001
2.381017322977035e-005	-3.400939e+000	4.803802e-001
2.381022865220630e-005	-3.400945e+000	4.803704e-001
2.381030927146497e-005	-3.400954e+000	4.803562e-001
2.381040757571513e-005	-3.400965e+000	4.803389e-001
2.381052606564567e-005	-3.400979e+000	4.803180e-001
2.381065093936619e-005	-3.400994e+000	4.802960e-001
2.381081231349596e-005	-3.401012e+000	4.802675e-001
2.381098562607401e-005	-3.401032e+000	4.802369e-001
2.381127468934407e-005	-3.401065e+000	4.801860e-001
2.381155966341380e-005	-3.401098e+000	4.801357e-001
2.381184271230520e-005	-3.401131e+000	4.800858e-001
2.381215649935623e-005	-3.401167e+000	4.800305e-001
2.381252005745761e-005	-3.401209e+000	4.799664e-001
2.381292142610209e-005	-3.401255e+000	4.798957e-001
2.381344331555215e-005	-3.401315e+000	4.798036e-001
2.381399971789432e-005	-3.401379e+000	4.797055e-001
2.381483349049368e-005	-3.401475e+000	4.795585e-001
2.381563210377509e-005	-3.401567e+000	4.794177e-001
2.381691894099368e-005	-3.401715e+000	4.791909e-001
2.381818811714740e-005	-3.401861e+000	4.789671e-001
2.381960556415395e-005	-3.402025e+000	4.787172e-001
2.382111428823257e-005	-3.402198e+000	4.784512e-001
2.382275088392443e-005	-3.402386e+000	4.781627e-001
2.382450627634938e-005	-3.402589e+000	4.778533e-001
2.382645041207354e-005	-3.402812e+000	4.775105e-001
2.382858515515202e-005	-3.403058e+000	4.771343e-001
2.383091390288292e-005	-3.403326e+000	4.767238e-001
2.383337377981007e-005	-3.403609e+000	4.762902e-001
2.383725068984743e-005	-3.404055e+000	4.756069e-001
2.384500450992215e-005	-3.404947e+000	4.742403e-001
2.385309937569984e-005	-3.405878e+000	4.728138e-001
2.386227028123157e-005	-3.406933e+000	4.711979e-001
2.387341603842050e-005	-3.408214e+000	4.692343e-001
2.388641677075558e-005	-3.409708e+000	4.669443e-001
2.390240831661133e-005	-3.411545e+000	4.641281e-001
2.391772066240370e-005	-3.413303e+000	4.614320e-001
2.393370353477651e-005	-3.415137e+000	4.586185e-001
2.394976297568166e-005	-3.416979e+000	4.557922e-001
2.397032260598999e-005	-3.419336e+000	4.521748e-001
2.398010979514482e-005	-3.420457e+000	4.504531e-001
2.398971873338019e-005	-3.421558e+000	4.487630e-001
2.399999999999993e-005	-3.422735e+000	4.469549e-001
2.400106502831634e-005	-3.422858e+000	4.467677e-001
2.400319508494915e-005	-3.423101e+000	4.463931e-001
2.400745519821499e-005	-3.423589e+000	4.456441e-001
2.401597542474646e-005	-3.424564e+000	4.441461e-001
2.402751769440604e-005	-3.425885e+000	4.421172e-001
2.404029859400360e-005	-3.427347e+000	4.398708e-001
2.405223750567235e-005	-3.428712e+000	4.377729e-001
2.406241728892199e-005	-3.429876e+000	4.359843e-001
2.407265032852344e-005	-3.431046e+000	4.341867e-001
2.408521117650431e-005	-3.432481e+000	4.319805e-001
2.409913245691596e-005	-3.434070e+000	4.295358e-001
2.411283842468142e-005	-3.435635e+000	4.271295e-001
2.412639828158021e-005	-3.437182e+000	4.247493e-001
2.413927018804062e-005	-3.438650e+000	4.224902e-001
2.415125092354023e-005	-3.440016e+000	4.203880e-001
2.416345162893434e-005	-3.441406e+000	4.182476e-001
2.420328407013611e-005	-3.445943e+000	4.112624e-001
2.422287628560350e-005	-3.448172e+000	4.078282e-001
2.424324521404240e-005	-3.450488e+000	4.042588e-001
2.426531863614296e-005	-3.452997e+000	4.003921e-001
2.428871070850065e-005	-3.455653e+000	3.962959e-001
2.433908836020707e-005	-3.461368e+000	3.874790e-001
2.438946601191349e-005	-3.467074e+000	3.786695e-001
2.443984366361991e-005	-3.472772e+000	3.698675e-001
2.449022131532634e-005	-3.478461e+000	3.610729e-001
2.454059896703276e-005	-3.484141e+000	3.522856e-001
2.459097661873918e-005	-3.489812e+000	3.435059e-001
2.464135427044560e-005	-3.495475e+000	3.347335e-001
2.495838668310963e-005	-3.530909e+000	2.796879e-001
2.500000000000007e-005	-3.535534e+000	2.724788e-001
2.502702646759499e-005	-3.538534e+000	2.678057e-001
2.508107940278463e-005	-3.544528e+000	2.584665e-001
2.599999999999998e-005	-3.644843e+000	1.011013e-001
2.625945408891062e-005	-3.672621e+000	5.727687e-002
2.660539287412458e-005	-3.709277e+000	-7.760259e-004
2.699999999999990e-005	-3.750555e+000	-6.664354e-002
2.714285714285706e-005	-3.765358e+000	-9.023163e-002
2.728571428571422e-005	-3.780084e+000	-1.137489e-001
2.742857142857138e-005	-3.794733e+000	-1.371953e-001
2.757142857142855e-005	-3.809306e+000	-1.605710e-001
2.771428571428571e-005	-3.823803e+000	-1.838757e-001
2.785714285714287e-005	-3.838223e+000	-2.071097e-001
2.800000000000003e-005	-3.852566e+000	-2.302728e-001
2.899999999999995e-005	-3.950775e+000	-3.892850e-001
2.929277196509449e-005	-3.978800e+000	-4.348861e-001
2.958554393018903e-005	-4.006482e+000	-4.800295e-001
2.987831589528357e-005	-4.033823e+000	-5.247153e-001
3.017108786037811e-005	-4.060820e+000	-5.689433e-001
3.046385982547264e-005	-4.087476e+000	-6.127137e-001
3.075663179056718e-005	-4.113789e+000	-6.560264e-001
3.104940375566172e-005	-4.139760e+000	-6.988814e-001
3.133467669897224e-005	-4.164728e+000	-7.400625e-001
3.161994964228275e-005	-4.189356e+000	-7.807473e-001
3.190522258559326e-005	-4.213645e+000	-8.209358e-001
3.219049552890377e-005	-4.237595e+000	-8.606280e-001
3.247576847221428e-005	-4.261206e+000	-8.998239e-001
3.276104141552479e-005	-4.284477e+000	-9.385234e-001
3.304631435883530e-005	-4.307409e+000	-9.767267e-001
3.361112659328739e-005	-4.351813e+000	-1.050718e+000
3.417593882773948e-005	-4.394814e+000	-1.122429e+000
3.474075106219157e-005	-4.436412e+000	-1.191858e+000
3.530556329664366e-005	-4.476607e+000	-1.259006e+000
3.587037553109575e-005	-4.515399e+000	-1.323872e+000
3.643518776554783e-005	-4.552788e+000	-1.386458e+000
3.699999999999992e-005	-4.588773e+000	-1.446762e+000
3.734605201821487e-005	-4.610095e+000	-1.482406e+000
3.769210403642981e-005	-4.630867e+000	-1.517109e+000
3.803815605464475e-005	-4.651087e+000	-1.550872e+000
3.838420807285969e-005	-4.670757e+000	-1.583694e+000
3.873026009107464e-005	-4.689876e+000	-1.615577e+000
3.907631210928958e-005	-4.708445e+000	-1.646519e+000
3.942236412750452e-005	-4.726462e+000	-1.676521e+000
3.999999999999989e-005	-4.755282e+000	-1.724677e+000
4.029539011331212e-005	-4.769419e+000	-1.748119e+000
4.059078022662436e-005	-4.783141e+000	-1.770870e+000
4.088617033993660e-005	-4.796450e+000	-1.792930e+000
4.118156045324883e-005	-4.809346e+000	-1.814299e+000
4.147695056656106e-005	-4.821828e+000	-1.834977e+000
4.177234067987330e-005	-4.833896e+000	-1.854964e+000
4.206773079318553e-005	-4.845551e+000	-1.874259e+000
4.300000000000007e-005	-4.879584e+000	-1.930387e+000
4.328571428571433e-005	-4.889179e+000	-1.946104e+000
4.357142857142859e-005	-4.898379e+000	-1.961182e+000
4.385714285714285e-005	-4.907182e+000	-1.975621e+000
4.414285714285712e-005	-4.915591e+000	-1.989420e+000
4.442857142857138e-005	-4.923603e+000	-2.002579e+000
4.471428571428564e-005	-4.931220e+000	-2.015100e+000
4.499999999999990e-005	-4.938442e+000	-2.026980e+000
4.600000000000003e-005	-4.960574e+000	-2.063261e+000
4.699999999999995e-005	-4.977810e+000	-2.091679e+000
4.799999999999987e-005	-4.990134e+000	-2.112389e+000
4.829046565804276e-005	-4.992791e+000	-2.116925e+000
4.858093131608565e-005	-4.995033e+000	-2.120861e+000
4.887139697412854e-005	-4.996858e+000	-2.124197e+000
4.916186263217144e-005	-4.998267e+000	-2.126933e+000
4.945232829021432e-005	-4.999260e+000	-2.129069e+000
4.974279394825722e-005	-4.999837e+000	-2.130605e+000
5.003325960630011e-005	-4.999997e+000	-2.131541e+000
5.100000000000005e-005	-4.997533e+000	-2.130333e+000
5.115326679001078e-005	-4.996719e+000	-2.129481e+000
5.130653358002150e-005	-4.995789e+000	-2.128495e+000
5.145980037003223e-005	-4.994743e+000	-2.127375e+000
5.161306716004295e-005	-4.993581e+000	-2.126121e+000
5.176633395005368e-005	-4.992304e+000	-2.124734e+000
5.191960074006441e-005	-4.990911e+000	-2.123212e+000
5.207286753007513e-005	-4.989402e+000	-2.121557e+000
5.235766428202738e-005	-4.986290e+000	-2.117924e+000
5.264246103397963e-005	-4.982780e+000	-2.113807e+000
5.292725778593188e-005	-4.978872e+000	-2.109204e+000
5.321205453788413e-005	-4.974565e+000	-2.104117e+000
5.349685128983637e-005	-4.969860e+000	-2.098545e+000
5.378164804178862e-005	-4.964756e+000	-2.092488e+000
5.406644479374087e-005	-4.959255e+000	-2.085945e+000
5.427917633114301e-005	-4.954886e+000	-2.080713e+000
5.449190786854514e-005	-4.950296e+000	-2.075243e+000
5.470463940594728e-005	-4.945486e+000	-2.069536e+000
5.491737094334942e-005	-4.940455e+000	-2.063590e+000
5.513010248075156e-005	-4.935204e+000	-2.057408e+000
5.534283401815369e-005	-4.929731e+000	-2.050987e+000
5.555556555555583e-005	-4.924038e+000	-2.044329e+000
5.555556655555583e-005	-4.924038e+000	-2.044329e+000
5.555556855555582e-005	-4.924038e+000	-2.044329e+000
5.555557255555580e-005	-4.924038e+000	-2.044329e+000
5.555557555555579e-005	-4.924038e+000	-2.044329e+000
5.555557579687252e-005	-4.924038e+000	-2.044329e+000
5.555557627950599e-005	-4.924038e+000	-2.044329e+000
5.555557724477292e-005	-4.924038e+000	-2.044329e+000
5.555557917530677e-005	-4.924038e+000	-2.044329e+000
5.555558303637449e-005	-4.924038e+000	-2.044329e+000
5.555559075850992e-005	-4.924038e+000	-2.044328e+000
5.555560620278057e-005	-4.924037e+000	-2.044328e+000
5.555563709132186e-005	-4.924037e+000	-2.044327e+000
5.555567326637981e-005	-4.924036e+000	-2.044326e+000
5.555571928816342e-005	-4.924034e+000	-2.044324e+000
5.555577537620627e-005	-4.924033e+000	-2.044322e+000
5.555587015161753e-005	-4.924030e+000	-2.044319e+000
5.555598592551689e-005	-4.924027e+000	-2.044316e+000
5.555610893500816e-005	-4.924024e+000	-2.044312e+000
5.555612376536949e-005	-4.924023e+000	-2.044311e+000
5.555615342609215e-005	-4.924023e+000	-2.044310e+000
5.555621274753748e-005	-4.924021e+000	-2.044308e+000
5.555631238373868e-005	-4.924018e+000	-2.044305e+000
5.555642386789066e-005	-4.924015e+000	-2.044302e+000
5.555647493424320e-005	-4.924014e+000	-2.044300e+000
5.555650649352139e-005	-4.924013e+000	-2.044299e+000
5.555653167228867e-005	-4.924012e+000	-2.044298e+000
5.555656008200552e-005	-4.924011e+000	-2.044297e+000
5.555661046070760e-005	-4.924010e+000	-2.044296e+000
5.555666201659325e-005	-4.924008e+000	-2.044294e+000
5.555671837430016e-005	-4.924007e+000	-2.044292e+000
5.555674108613062e-005	-4.924006e+000	-2.044292e+000
5.555676360103441e-005	-4.924006e+000	-2.044291e+000
5.555678774806947e-005	-4.924005e+000	-2.044290e+000
5.555683604213982e-005	-4.924004e+000	-2.044289e+000
5.555691604699608e-005	-4.924002e+000	-2.044286e+000
5.555701507196529e-005	-4.923999e+000	-2.044283e+000
5.555707927505779e-005	-4.923997e+000	-2.044281e+000
5.555715494691025e-005	-4.923995e+000	-2.044278e+000
5.555730629061497e-005	-4.923991e+000	-2.044274e+000
5.555754375808839e-005	-4.923985e+000	-2.044266e+000
5.555780647299247e-005	-4.923977e+000	-2.044258e+000
5.555806865359934e-005	-4.923970e+000	-2.044249e+000
5.555836633123579e-005	-4.923962e+000	-2.044240e+000
5.555859798034735e-005	-4.923956e+000	-2.044232e+000
5.555885014926309e-005	-4.923949e+000	-2.044224e+000
5.555911732519985e-005	-4.923942e+000	-2.044216e+000
5.555939290536054e-005	-4.923934e+000	-2.044207e+000
5.555994406568191e-005	-4.923919e+000	-2.044189e+000
5.556047678002981e-005	-4.923904e+000	-2.044172e+000
5.556138837033912e-005	-4.923880e+000	-2.044143e+000
5.556234858908565e-005	-4.923853e+000	-2.044112e+000
5.556426902657871e-005	-4.923801e+000	-2.044051e+000
5.556810990156461e-005	-4.923696e+000	-2.043928e+000
5.557579165153662e-005	-4.923486e+000	-2.043682e+000
5.558553745549626e-005	-4.923219e+000	-2.043369e+000
5.559767105765942e-005	-4.922886e+000	-2.042979e+000
5.561113983273752e-005	-4.922515e+000	-2.042546e+000
5.562658059688613e-005	-4.922089e+000	-2.042048e+000
5.564231543815157e-005	-4.921654e+000	-2.041539e+000
5.565808944120758e-005	-4.921216e+000	-2.041027e+000
5.567317840964752e-005	-4.920797e+000	-2.040537e+000
5.568852006416136e-005	-4.920369e+000	-2.040037e+000
5.570488426459011e-005	-4.919911e+000	-2.039502e+000
5.572635404760165e-005	-4.919309e+000	-2.038799e+000
5.573709300086150e-005	-4.919007e+000	-2.038447e+000
5.574779946787784e-005	-4.918705e+000	-2.038094e+000
5.576020663954160e-005	-4.918355e+000	-2.037685e+000
5.577274749099287e-005	-4.918000e+000	-2.037271e+000
5.578662861067886e-005	-4.917606e+000	-2.036812e+000
5.580067827205197e-005	-4.917207e+000	-2.036346e+000
5.581609180458822e-005	-4.916768e+000	-2.035834e+000
5.583224706485926e-005	-4.916306e+000	-2.035296e+000
5.585113892692443e-005	-4.915764e+000	-2.034665e+000
5.587253279690815e-005	-4.915149e+000	-2.033948e+000
5.588513673362820e-005	-4.914785e+000	-2.033525e+000
5.589719884274203e-005	-4.914436e+000	-2.033119e+000
5.591235958662543e-005	-4.913997e+000	-2.032608e+000
5.592696183562068e-005	-4.913573e+000	-2.032115e+000
5.594430563258786e-005	-4.913068e+000	-2.031527e+000
5.596287760637440e-005	-4.912526e+000	-2.030896e+000
5.597791348341524e-005	-4.912085e+000	-2.030384e+000
5.599201646893010e-005	-4.911671e+000	-2.029903e+000
5.600000000000006e-005	-4.911436e+000	-2.029630e+000
5.600112328661591e-005	-4.911403e+000	-2.029592e+000
5.600336985984783e-005	-4.911337e+000	-2.029515e+000
5.600786300631144e-005	-4.911205e+000	-2.029361e+000
5.601676860903133e-005	-4.910942e+000	-2.029056e+000
5.602629012616662e-005	-4.910661e+000	-2.028730e+000
5.603521379678525e-005	-4.910397e+000	-2.028423e+000
5.604509896278438e-005	-4.910104e+000	-2.028083e+000
5.605443297649303e-005	-4.909827e+000	-2.027762e+000
5.606565163054130e-005	-4.909493e+000	-2.027375e+000
5.607772838466451e-005	-4.909134e+000	-2.026958e+000
5.609303138819121e-005	-4.908677e+000	-2.026428e+000
5.611115789128768e-005	-4.908134e+000	-2.025798e+000
5.613794531399239e-005	-4.907330e+000	-2.024866e+000
5.616189188944912e-005	-4.906608e+000	-2.024029e+000
5.618469446726226e-005	-4.905917e+000	-2.023230e+000
5.621244835239334e-005	-4.905074e+000	-2.022254e+000
5.623858042092325e-005	-4.904276e+000	-2.021331e+000
5.627326301420495e-005	-4.903212e+000	-2.020101e+000
5.630586406564671e-005	-4.902207e+000	-2.018940e+000
5.633634495966103e-005	-4.901262e+000	-2.017849e+000
5.636952412457004e-005	-4.900229e+000	-2.016657e+000
5.640355021478498e-005	-4.899164e+000	-2.015430e+000
5.643362142371180e-005	-4.898218e+000	-2.014340e+000
5.646426812541856e-005	-4.897249e+000	-2.013225e+000
5.649739831289002e-005	-4.896197e+000	-2.012014e+000
5.653616846502778e-005	-4.894959e+000	-2.010590e+000
5.658360218228453e-005	-4.893434e+000	-2.008838e+000
5.663886095456125e-005	-4.891644e+000	-2.006783e+000
5.670385675167543e-005	-4.889520e+000	-2.004348e+000
5.677833323106270e-005	-4.887061e+000	-2.001533e+000
5.686889660586883e-005	-4.884035e+000	-1.998074e+000
5.698005728423192e-005	-4.880266e+000	-1.993790e+000
5.699999999999998e-005	-4.879584e+000	-1.993016e+000
5.701457043319285e-005	-4.879084e+000	-1.992447e+000
5.704371129957881e-005	-4.878081e+000	-1.991306e+000
5.799999999999989e-005	-4.842916e+000	-1.951847e+000
5.842857142857135e-005	-4.825727e+000	-1.932795e+000
5.885714285714280e-005	-4.807672e+000	-1.913121e+000
5.928571428571425e-005	-4.788750e+000	-1.892823e+000
5.971428571428571e-005	-4.768963e+000	-1.871902e+000
6.014285714285717e-005	-4.748309e+000	-1.850359e+000
6.057142857142862e-005	-4.726790e+000	-1.828193e+000
6.100000000000007e-005	-4.704404e+000	-1.805404e+000
6.128571428571434e-005	-4.689009e+000	-1.789930e+000
6.157142857142860e-005	-4.673239e+000	-1.774278e+000
6.185714285714286e-005	-4.657095e+000	-1.758448e+000
6.214285714285711e-005	-4.640576e+000	-1.742440e+000
6.242857142857138e-005	-4.623683e+000	-1.726253e+000
