time	V(vin)	V(vout)
0.000000000000000e+000	4.000000e+000	-2.299172e+000
6.799696922155877e-007	3.932003e+000	-2.321954e+000
1.233132465902403e-006	3.876687e+000	-2.339823e+000
1.780350785824301e-006	3.821965e+000	-2.356787e+000
2.327569105746200e-006	3.767243e+000	-2.373057e+000
2.874787425668098e-006	3.712521e+000	-2.388634e+000
3.422005745589996e-006	3.657799e+000	-2.403517e+000
3.969224065511895e-006	3.603078e+000	-2.417706e+000
4.516442385433792e-006	3.548356e+000	-2.431202e+000
5.063660705355690e-006	3.493634e+000	-2.444004e+000
6.381970232134616e-006	3.361803e+000	-2.471850e+000
6.666676666666717e-006	3.333332e+000	-2.477339e+000
6.748793064381524e-006	3.325121e+000	-2.478896e+000
6.750158160111989e-006	3.324984e+000	-2.478921e+000
6.851553706328176e-006	3.314845e+000	-2.480804e+000
6.853041749738673e-006	3.314696e+000	-2.480831e+000
6.853881212566483e-006	3.314612e+000	-2.480847e+000
6.854375374219920e-006	3.314563e+000	-2.480856e+000
6.854541643153004e-006	3.314546e+000	-2.480859e+000
6.854673760635323e-006	3.314533e+000	-2.480861e+000
6.854730923157651e-006	3.314527e+000	-2.480862e+000
6.854801478774122e-006	3.314520e+000	-2.480864e+000
6.854867456700586e-006	3.314513e+000	-2.480865e+000
6.854999412553514e-006	3.314500e+000	-2.480867e+000
6.855159860182656e-006	3.314484e+000	-2.480870e+000
6.855431446078789e-006	3.314457e+000	-2.480875e+000
6.855808450968769e-006	3.314419e+000	-2.480882e+000
6.858070480308433e-006	3.314193e+000	-2.480924e+000
6.861086519427840e-006	3.313891e+000	-2.480979e+000
6.867118597666871e-006	3.313288e+000	-2.481090e+000
6.879182754144717e-006	3.312082e+000	-2.481312e+000
6.893398294746580e-006	3.310660e+000	-2.481573e+000
6.907962958258278e-006	3.309204e+000	-2.481840e+000
6.939556818940859e-006	3.306044e+000	-2.482417e+000
6.986471093430166e-006	3.301353e+000	-2.483269e+000
7.006224806762803e-006	3.299378e+000	-2.483627e+000
7.025978520095439e-006	3.297402e+000	-2.483983e+000
7.045732233428076e-006	3.295427e+000	-2.484339e+000
7.065485946760712e-006	3.293451e+000	-2.484693e+000
7.085239660093349e-006	3.291476e+000	-2.485046e+000
7.104993373425985e-006	3.289501e+000	-2.485398e+000
7.124747086758622e-006	3.287525e+000	-2.485749e+000
7.200597760455675e-006	3.279940e+000	-2.487090e+000
7.274354374757876e-006	3.272565e+000	-2.488381e+000
7.360550849970548e-006	3.263945e+000	-2.489868e+000
7.528482162357702e-006	3.247152e+000	-2.492716e+000
7.702962646062963e-006	3.229704e+000	-2.495597e+000
7.999999999999978e-006	3.200000e+000	-2.500387e+000
8.098292059230319e-006	3.190171e+000	-2.501909e+000
8.229348138204034e-006	3.177065e+000	-2.503893e+000
8.491460296151682e-006	3.150854e+000	-2.507708e+000
8.999999999999894e-006	3.100000e+000	-2.514829e+000
9.657317483344704e-006	3.034268e+000	-2.522990e+000
1.031463496668952e-005	2.968536e+000	-2.530080e+000
1.097195245003433e-005	2.902805e+000	-2.536100e+000
1.162926993337914e-005	2.837073e+000	-2.541050e+000
1.228658741672395e-005	2.771341e+000	-2.544929e+000
1.294390490006876e-005	2.705610e+000	-2.547738e+000
1.360122238341357e-005	2.639878e+000	-2.549477e+000
1.501768291362265e-005	2.498232e+000	-2.549589e+000
1.643414344383172e-005	2.356586e+000	-2.544744e+000
1.785060397404079e-005	2.214940e+000	-2.534943e+000
1.926706450424987e-005	2.073294e+000	-2.520185e+000
2.068352503445894e-005	1.931648e+000	-2.500471e+000
2.209998556466802e-005	1.790001e+000	-2.475800e+000
2.351644609487709e-005	1.648355e+000	-2.446173e+000
2.530883997323028e-005	1.469116e+000	-2.401485e+000
2.710123385158348e-005	1.289877e+000	-2.349688e+000
2.889362772993668e-005	1.110637e+000	-2.290782e+000
3.068602160828988e-005	9.313979e-001	-2.224766e+000
3.247841548664308e-005	7.521585e-001	-2.151640e+000
3.427080936499628e-005	5.729191e-001	-2.071405e+000
3.606320324334948e-005	3.936797e-001	-1.984061e+000
3.999999999999989e-005	1.776357e-014	-1.771715e+000
4.086529179062854e-005	-8.652918e-002	-1.721175e+000
4.173058358125719e-005	-1.730584e-001	-1.669457e+000
4.259587537188584e-005	-2.595875e-001	-1.616562e+000
4.346116716251449e-005	-3.461167e-001	-1.562489e+000
4.432645895314314e-005	-4.326459e-001	-1.507238e+000
4.519175074377179e-005	-5.191751e-001	-1.450810e+000
4.605704253440044e-005	-6.057042e-001	-1.393203e+000
4.722344736499374e-005	-7.223447e-001	-1.313748e+000
4.838985219558703e-005	-8.389852e-001	-1.232782e+000
4.955625702618034e-005	-9.556257e-001	-1.150305e+000
5.072266185677364e-005	-1.072266e+000	-1.066318e+000
5.188906668736694e-005	-1.188907e+000	-9.808204e-001
5.305547151796024e-005	-1.305547e+000	-8.938120e-001
5.422187634855353e-005	-1.422188e+000	-8.052928e-001
5.428571428571440e-005	-1.428571e+000	-8.004287e-001
5.441339016003612e-005	-1.441339e+000	-7.906911e-001
5.454324716797966e-005	-1.454325e+000	-7.807750e-001
5.484215112567653e-005	-1.484215e+000	-7.578941e-001
5.514105508337340e-005	-1.514106e+000	-7.349496e-001
5.543995904107028e-005	-1.543996e+000	-7.119412e-001
5.573886299876716e-005	-1.573886e+000	-6.888691e-001
5.603776695646403e-005	-1.603777e+000	-6.657333e-001
5.633667091416090e-005	-1.633667e+000	-6.425337e-001
5.663557487185778e-005	-1.663558e+000	-6.192703e-001
5.664939171689826e-005	-1.664939e+000	-6.181937e-001
5.665546868356707e-005	-1.665547e+000	-6.177202e-001
5.665842320802745e-005	-1.665842e+000	-6.174899e-001
5.666003927352068e-005	-1.666004e+000	-6.173640e-001
5.666109582998149e-005	-1.666110e+000	-6.172817e-001
5.666152441985949e-005	-1.666152e+000	-6.172483e-001
5.666178252025362e-005	-1.666178e+000	-6.172282e-001
5.666193144874599e-005	-1.666193e+000	-6.172165e-001
5.666208054922991e-005	-1.666208e+000	-6.172049e-001
5.666224198404659e-005	-1.666224e+000	-6.171923e-001
5.666240693129451e-005	-1.666241e+000	-6.171795e-001
5.666283955527477e-005	-1.666284e+000	-6.171458e-001
5.666357818177306e-005	-1.666358e+000	-6.170882e-001
5.666529498784558e-005	-1.666530e+000	-6.169544e-001
5.666719843146423e-005	-1.666720e+000	-6.168061e-001
5.667031479477227e-005	-1.667032e+000	-6.165632e-001
5.667654752138855e-005	-1.667655e+000	-6.160774e-001
5.668359691452223e-005	-1.668360e+000	-6.155280e-001
5.669222880991232e-005	-1.669223e+000	-6.148552e-001
5.670121918166450e-005	-1.670122e+000	-6.141543e-001
5.671255289421131e-005	-1.671255e+000	-6.132708e-001
5.672524772526769e-005	-1.672525e+000	-6.122810e-001
5.674247514877084e-005	-1.674248e+000	-6.109376e-001
5.676771049772846e-005	-1.676771e+000	-6.089695e-001
5.678592675566500e-005	-1.678593e+000	-6.075486e-001
5.680529638475099e-005	-1.680530e+000	-6.060374e-001
5.685476494072194e-005	-1.685477e+000	-6.021770e-001
5.688668855630954e-005	-1.688669e+000	-5.996849e-001
5.692964630924012e-005	-1.692965e+000	-5.963305e-001
5.696582535890142e-005	-1.696583e+000	-5.935046e-001
5.699999999999998e-005	-1.700000e+000	-5.908347e-001
5.700467143684887e-005	-1.700467e+000	-5.904696e-001
5.701401431054687e-005	-1.701401e+000	-5.897394e-001
5.703270005794265e-005	-1.703270e+000	-5.882789e-001
5.707007155273444e-005	-1.707007e+000	-5.853572e-001
5.720502004630734e-005	-1.720502e+000	-5.748001e-001
5.731247256534375e-005	-1.731247e+000	-5.663857e-001
5.745463304437730e-005	-1.745463e+000	-5.552436e-001
5.760647512576315e-005	-1.760648e+000	-5.433311e-001
5.773170579006907e-005	-1.773171e+000	-5.334959e-001
5.790597863987359e-005	-1.790598e+000	-5.197958e-001
5.802537037537985e-005	-1.802537e+000	-5.104019e-001
5.817759262766024e-005	-1.817759e+000	-4.984088e-001
5.838055563070054e-005	-1.838056e+000	-4.823951e-001
5.878648163678115e-005	-1.878648e+000	-4.503211e-001
5.900000000000003e-005	-1.900000e+000	-4.334287e-001
5.915261991105763e-005	-1.915262e+000	-4.213310e-001
5.935611312580104e-005	-1.935611e+000	-4.051821e-001
5.976309955528806e-005	-1.976310e+000	-3.728433e-001
5.999999999999994e-005	-2.000000e+000	-3.539989e-001
6.004567497944853e-005	-2.004567e+000	-3.503605e-001
6.013702493834548e-005	-2.013702e+000	-3.430816e-001
6.031972485613939e-005	-2.031972e+000	-3.285128e-001
6.068397769620824e-005	-2.068398e+000	-2.994366e-001
6.100000000000007e-005	-2.100000e+000	-2.741876e-001
6.104779805142947e-005	-2.104780e+000	-2.703640e-001
6.114339415428803e-005	-2.114339e+000	-2.627147e-001
6.133458636000538e-005	-2.133459e+000	-2.474069e-001
6.171697077143987e-005	-2.171697e+000	-2.167669e-001
6.199999999999999e-005	-2.200000e+000	-1.940726e-001
6.221398281609520e-005	-2.221398e+000	-1.768948e-001
6.249929323755526e-005	-2.249929e+000	-1.539755e-001
6.299999999999991e-005	-2.300000e+000	-1.137321e-001
6.339943459004430e-005	-2.339943e+000	-8.159266e-002
6.400000000000004e-005	-2.400000e+000	-3.324425e-002
6.446863879381606e-005	-2.446864e+000	4.524629e-003
6.493727758763207e-005	-2.493728e+000	4.227995e-002
6.540591638144809e-005	-2.540592e+000	8.002171e-002
6.587455517526411e-005	-2.587455e+000	1.177499e-001
6.634319396908012e-005	-2.634319e+000	1.554646e-001
6.681183276289614e-005	-2.681183e+000	1.931656e-001
6.728047155671216e-005	-2.728047e+000	2.308532e-001
7.009524409523822e-005	-3.009524e+000	4.559503e-001
7.015874015873038e-005	-3.015874e+000	4.609974e-001
7.019465191942685e-005	-3.019465e+000	4.638513e-001
7.019522132828827e-005	-3.019522e+000	4.638966e-001
7.031351059857299e-005	-3.031351e+000	4.732925e-001
7.031876965009321e-005	-3.031877e+000	4.737101e-001
7.032018430880673e-005	-3.032018e+000	4.738224e-001
7.032085272494579e-005	-3.032085e+000	4.738755e-001
7.032112108968356e-005	-3.032112e+000	4.738968e-001
7.032129654288024e-005	-3.032130e+000	4.739107e-001
7.032141282018204e-005	-3.032141e+000	4.739200e-001
7.032154872901614e-005	-3.032155e+000	4.739308e-001
7.032180030654145e-005	-3.032180e+000	4.739507e-001
7.032532239189442e-005	-3.032532e+000	4.742304e-001
7.032934763229778e-005	-3.032935e+000	4.745500e-001
7.033739811310473e-005	-3.033740e+000	4.751892e-001
7.035019930582971e-005	-3.035020e+000	4.762055e-001
7.036465487298771e-005	-3.036465e+000	4.773531e-001
7.039533718548462e-005	-3.039534e+000	4.797886e-001
7.041602609348719e-005	-3.041603e+000	4.814306e-001
7.045068849547797e-005	-3.045069e+000	4.841812e-001
7.047826721903782e-005	-3.047827e+000	4.863694e-001
7.050827185036876e-005	-3.050827e+000	4.887496e-001
7.053567127593679e-005	-3.053567e+000	4.909228e-001
7.057493525172535e-005	-3.057493e+000	4.940364e-001
7.063293959312720e-005	-3.063294e+000	4.986348e-001
7.070257095509458e-005	-3.070257e+000	5.041530e-001
7.078224267872990e-005	-3.078224e+000	5.104638e-001
7.090618319637899e-005	-3.090618e+000	5.202760e-001
7.099999999999988e-005	-3.100000e+000	5.277000e-001
7.107103581173988e-005	-3.107104e+000	5.333168e-001
7.116575022739343e-005	-3.116575e+000	5.408013e-001
7.135517905870054e-005	-3.135518e+000	5.557532e-001
7.173403672131474e-005	-3.173404e+000	5.856118e-001
7.200000000000002e-005	-3.200000e+000	6.065436e-001
7.228492140376290e-005	-3.228492e+000	6.289014e-001
7.306512489228855e-005	-3.306513e+000	6.899062e-001
7.350976596601172e-005	-3.350977e+000	7.245107e-001
7.395440703973490e-005	-3.395441e+000	7.589669e-001
7.439904811345807e-005	-3.439905e+000	7.932749e-001
7.484368918718126e-005	-3.484369e+000	8.274346e-001
7.528833026090443e-005	-3.528833e+000	8.614461e-001
7.573297133462761e-005	-3.573297e+000	8.953094e-001
7.617761240835078e-005	-3.617761e+000	9.290244e-001
7.689978208371116e-005	-3.689978e+000	9.834472e-001
7.762195175907155e-005	-3.762195e+000	1.037319e+000
7.834412143443192e-005	-3.834412e+000	1.090641e+000
7.906629110979231e-005	-3.906629e+000	1.143413e+000
7.978846078515269e-005	-3.978846e+000	1.195634e+000
8.051063046051307e-005	-4.051063e+000	1.247305e+000
8.123280013587345e-005	-4.123280e+000	1.298425e+000
8.166216973633930e-005	-4.166217e+000	1.328491e+000
8.209153933680517e-005	-4.209154e+000	1.358309e+000
8.252090893727102e-005	-4.252091e+000	1.387881e+000
8.295027853773687e-005	-4.295028e+000	1.417206e+000
8.337964813820274e-005	-4.337965e+000	1.446283e+000
8.380901773866859e-005	-4.380902e+000	1.475114e+000
8.423838733913444e-005	-4.423839e+000	1.503698e+000
8.466475530334624e-005	-4.466476e+000	1.531823e+000
8.509112326755802e-005	-4.509112e+000	1.559669e+000
8.551749123176981e-005	-4.551749e+000	1.587237e+000
8.594385919598160e-005	-4.594386e+000	1.614525e+000
8.637022716019339e-005	-4.637023e+000	1.641535e+000
8.679659512440517e-005	-4.679660e+000	1.668266e+000
8.722296308861697e-005	-4.722296e+000	1.694718e+000
8.756532212292319e-005	-4.756532e+000	1.715750e+000
8.790768115722940e-005	-4.790768e+000	1.736579e+000
8.825004019153562e-005	-4.825004e+000	1.757205e+000
8.859239922584183e-005	-4.859240e+000	1.777628e+000
8.893475826014806e-005	-4.893476e+000	1.797847e+000
8.927711729445427e-005	-4.927712e+000	1.817864e+000
8.961947632876049e-005	-4.961947e+000	1.837677e+000
8.976021649435114e-005	-4.978318e+000	1.845792e+000
8.990095665994179e-005	-4.988164e+000	1.853866e+000
9.004169682553244e-005	-4.991487e+000	1.861898e+000
9.018243699112311e-005	-4.988285e+000	1.869890e+000
9.032317715671376e-005	-4.978559e+000	1.877841e+000
9.046391732230441e-005	-4.962309e+000	1.885750e+000
9.060465748789506e-005	-4.939534e+000	1.893619e+000
9.095895524209161e-005	-4.904105e+000	1.913291e+000
9.131325299628816e-005	-4.868675e+000	1.932729e+000
9.166755075048470e-005	-4.833245e+000	1.951931e+000
9.202184850468124e-005	-4.797815e+000	1.970899e+000
9.237614625887778e-005	-4.762386e+000	1.989631e+000
9.273044401307433e-005	-4.726956e+000	2.008128e+000
9.308474176727088e-005	-4.691526e+000	2.026390e+000
9.338159354239788e-005	-4.661841e+000	2.041485e+000
9.367844531752489e-005	-4.632156e+000	2.056407e+000
9.397529709265189e-005	-4.602470e+000	2.071155e+000
9.427214886777891e-005	-4.572785e+000	2.085731e+000
9.456900064290592e-005	-4.543100e+000	2.100134e+000
9.486585241803292e-005	-4.513415e+000	2.114364e+000
9.516270419315993e-005	-4.483729e+000	2.128421e+000
9.816660909379581e-005	-4.183339e+000	2.260160e+000
9.842852208039641e-005	-4.157148e+000	2.270721e+000
9.869043506699702e-005	-4.130957e+000	2.281133e+000
9.895234805359762e-005	-4.104765e+000	2.291398e+000
9.921426104019824e-005	-4.078574e+000	2.301515e+000
9.947617402679884e-005	-4.052383e+000	2.311484e+000
9.973808701339944e-005	-4.026191e+000	2.321306e+000
1.000000000000001e-004	-4.000000e+000	2.330979e+000
1.002987129685369e-004	-3.970129e+000	2.341791e+000
1.005974259370738e-004	-3.940258e+000	2.352403e+000
1.008961389056107e-004	-3.910386e+000	2.362815e+000
1.011948518741475e-004	-3.880515e+000	2.373027e+000
1.014935648426844e-004	-3.850644e+000	2.383039e+000
1.017922778112213e-004	-3.820772e+000	2.392852e+000
1.020909907797581e-004	-3.790901e+000	2.402464e+000
1.023886638536692e-004	-3.761134e+000	2.411813e+000
1.026863369275804e-004	-3.731366e+000	2.420956e+000
1.029840100014915e-004	-3.701599e+000	2.429895e+000
1.032816830754026e-004	-3.671832e+000	2.438629e+000
1.035793561493137e-004	-3.642064e+000	2.447158e+000
1.038770292232248e-004	-3.612297e+000	2.455482e+000
1.041747022971359e-004	-3.582530e+000	2.463601e+000
1.045783162546879e-004	-3.542168e+000	2.474247e+000
1.049819302122399e-004	-3.501807e+000	2.484503e+000
1.053855441697919e-004	-3.461446e+000	2.494370e+000
1.057891581273439e-004	-3.421084e+000	2.503848e+000
1.061927720848959e-004	-3.380723e+000	2.512935e+000
1.065963860424479e-004	-3.340361e+000	2.521633e+000
1.069999999999999e-004	-3.300000e+000	2.529942e+000
1.090763285983005e-004	-3.092367e+000	2.566222e+000
1.093650960279469e-004	-3.063490e+000	2.570412e+000
1.096538634575932e-004	-3.034614e+000	2.574397e+000
1.099426308872395e-004	-3.005737e+000	2.578176e+000
1.102313983168858e-004	-2.976860e+000	2.581751e+000
1.105201657465321e-004	-2.947984e+000	2.585120e+000
1.108089331761785e-004	-2.919107e+000	2.588284e+000
1.110977006058248e-004	-2.890230e+000	2.591244e+000
1.119999999999999e-004	-2.800000e+000	2.599118e+000
1.121517897696754e-004	-2.784821e+000	2.600202e+000
1.123035795393508e-004	-2.769642e+000	2.601239e+000
1.124553693090262e-004	-2.754463e+000	2.602230e+000
1.126071590787017e-004	-2.739284e+000	2.603175e+000
1.127589488483771e-004	-2.724105e+000	2.604073e+000
1.129107386180526e-004	-2.708926e+000	2.604924e+000
1.130625283877280e-004	-2.693747e+000	2.605729e+000
1.140000000000000e-004	-2.600000e+000	2.609208e+000
1.150000000000001e-004	-2.500000e+000	2.610445e+000
1.169999999999999e-004	-2.300000e+000	2.605322e+000
1.174577777777800e-004	-2.254222e+000	2.602673e+000
1.177777777777781e-004	-2.222222e+000	2.600542e+000
1.180000000000001e-004	-2.200000e+000	2.598956e+000
1.190000000000000e-004	-2.100000e+000	2.590068e+000
1.199999999999999e-004	-2.000000e+000	2.578659e+000
1.201771380066458e-004	-1.982286e+000	2.576374e+000
1.201772813221851e-004	-1.982272e+000	2.576373e+000
1.201775679532638e-004	-1.982243e+000	2.576369e+000
1.201777134965903e-004	-1.982229e+000	2.576367e+000
1.201778643904836e-004	-1.982214e+000	2.576365e+000
1.201780457559096e-004	-1.982195e+000	2.576363e+000
1.201780772731528e-004	-1.982192e+000	2.576362e+000
1.201781132928596e-004	-1.982189e+000	2.576362e+000
1.201781286479817e-004	-1.982187e+000	2.576361e+000
1.201781368881745e-004	-1.982186e+000	2.576361e+000
1.201781409345159e-004	-1.982186e+000	2.576361e+000
1.201781466933173e-004	-1.982185e+000	2.576361e+000
1.201781495334213e-004	-1.982185e+000	2.576361e+000
1.201781537389925e-004	-1.982185e+000	2.576361e+000
1.201781579873466e-004	-1.982184e+000	2.576361e+000
1.201781664840545e-004	-1.982183e+000	2.576361e+000
1.201781834774703e-004	-1.982182e+000	2.576361e+000
1.201782174643019e-004	-1.982178e+000	2.576360e+000
1.201782854379652e-004	-1.982171e+000	2.576359e+000
1.201783910154907e-004	-1.982161e+000	2.576358e+000
1.201785052712024e-004	-1.982149e+000	2.576356e+000
1.201786557276513e-004	-1.982134e+000	2.576355e+000
1.201788362079337e-004	-1.982116e+000	2.576352e+000
1.201790697116752e-004	-1.982093e+000	2.576349e+000
1.201793454917329e-004	-1.982065e+000	2.576345e+000
1.201796847400195e-004	-1.982032e+000	2.576341e+000
1.201800900862383e-004	-1.981991e+000	2.576336e+000
1.201812199938129e-004	-1.981878e+000	2.576321e+000
1.201830487055611e-004	-1.981695e+000	2.576297e+000
1.201843731755581e-004	-1.981563e+000	2.576279e+000
1.201861071113066e-004	-1.981389e+000	2.576257e+000
1.201883992049554e-004	-1.981160e+000	2.576227e+000
1.201914753053027e-004	-1.980852e+000	2.576186e+000
1.201956632893707e-004	-1.980434e+000	2.576131e+000
1.202001158547702e-004	-1.979988e+000	2.576072e+000
1.202051463332671e-004	-1.979485e+000	2.576006e+000
1.202105198963045e-004	-1.978948e+000	2.575935e+000
1.202168007351683e-004	-1.978320e+000	2.575852e+000
1.202237838132305e-004	-1.977622e+000	2.575760e+000
1.202321034553889e-004	-1.976790e+000	2.575650e+000
1.202424145509697e-004	-1.975759e+000	2.575513e+000
1.202572816339782e-004	-1.974272e+000	2.575315e+000
1.202792107797535e-004	-1.972079e+000	2.575023e+000
1.202966372536474e-004	-1.970336e+000	2.574790e+000
1.203140345069820e-004	-1.968597e+000	2.574556e+000
1.203338188791303e-004	-1.966618e+000	2.574289e+000
1.203562158013664e-004	-1.964378e+000	2.573986e+000
1.203786470518142e-004	-1.962135e+000	2.573681e+000
1.204049303184906e-004	-1.959507e+000	2.573323e+000
1.204431318943848e-004	-1.955687e+000	2.572798e+000
1.204737515898191e-004	-1.952625e+000	2.572375e+000
1.205070814710614e-004	-1.949292e+000	2.571912e+000
1.205395167211696e-004	-1.946048e+000	2.571458e+000
1.205903969431058e-004	-1.940960e+000	2.570741e+000
1.206331101390374e-004	-1.936689e+000	2.570135e+000
1.206966592551312e-004	-1.930334e+000	2.569223e+000
1.207550208541092e-004	-1.924498e+000	2.568377e+000
1.208383867688373e-004	-1.916161e+000	2.567153e+000
1.209318712110095e-004	-1.906813e+000	2.565767e+000
1.209363013389181e-004	-1.906370e+000	2.565700e+000
1.209423136553655e-004	-1.905769e+000	2.565610e+000
1.209483259718129e-004	-1.905167e+000	2.565520e+000
1.209543382882603e-004	-1.904566e+000	2.565429e+000
1.209603506047077e-004	-1.903965e+000	2.565339e+000
1.209663629211551e-004	-1.903364e+000	2.565248e+000
1.209723752376025e-004	-1.902762e+000	2.565157e+000
