time	V(vin)	V(vout)
0.000000000000000e+000	2.467009e+000	3.438577e-001
4.136430266539481e-008	2.458422e+000	3.469746e-001
1.240929079961844e-007	2.441249e+000	3.532119e-001
2.895501186577637e-007	2.406902e+000	3.657008e-001
4.883003150461460e-007	2.365644e+000	3.807258e-001
7.006267836275667e-007	2.321568e+000	3.968094e-001
1.024198365144483e-006	2.252969e+000	4.213628e-001
1.173674263482155e-006	2.212633e+000	4.327360e-001
1.323150161819826e-006	2.172618e+000	4.441225e-001
1.472626060157498e-006	2.132923e+000	4.555224e-001
1.622101958495170e-006	2.093549e+000	4.669357e-001
1.771577856832842e-006	2.054494e+000	4.783623e-001
1.921053755170513e-006	2.015759e+000	4.898023e-001
2.070529653508185e-006	1.977345e+000	5.012556e-001
2.218834035195644e-006	1.943810e+000	5.126348e-001
2.367138416883102e-006	1.910950e+000	5.240255e-001
2.515442798570561e-006	1.878765e+000	5.354277e-001
2.663747180258019e-006	1.847256e+000	5.468415e-001
2.812051561945478e-006	1.816421e+000	5.582667e-001
2.960355943632937e-006	1.786261e+000	5.697034e-001
3.108660325320395e-006	1.756776e+000	5.811516e-001
3.251382458367306e-006	1.734391e+000	5.921818e-001
3.394104591414216e-006	1.711253e+000	6.032210e-001
3.536826724461127e-006	1.687360e+000	6.142695e-001
3.679548857508038e-006	1.662714e+000	6.253270e-001
3.822270990554949e-006	1.637313e+000	6.363937e-001
3.964993123601859e-006	1.611159e+000	6.474696e-001
4.107715256648770e-006	1.584251e+000	6.585546e-001
4.385016002960903e-006	1.522487e+000	6.801230e-001
4.662316749273035e-006	1.460239e+000	7.017184e-001
4.939617495585168e-006	1.397508e+000	7.233410e-001
5.216918241897301e-006	1.334293e+000	7.449906e-001
5.494218988209435e-006	1.270595e+000	7.666673e-001
5.771519734521567e-006	1.206413e+000	7.883710e-001
6.048820480833699e-006	1.141747e+000	8.101018e-001
7.032243822942437e-006	8.598595e-001	8.873212e-001
8.021109842690916e-006	6.308935e-001	9.651704e-001
8.161450901775788e-006	6.062752e-001	9.762317e-001
8.301791960860661e-006	5.816250e-001	9.872948e-001
8.442133019945534e-006	5.569431e-001	9.983598e-001
8.582474079030407e-006	5.322293e-001	1.009427e+000
8.722815138115280e-006	5.074837e-001	1.020495e+000
8.863156197200153e-006	4.827063e-001	1.031565e+000
9.003497256285025e-006	4.578971e-001	1.042638e+000
9.031212674165815e-006	4.497514e-001	1.044824e+000
9.058928092046607e-006	4.416057e-001	1.047011e+000
9.086643509927397e-006	4.334600e-001	1.049198e+000
9.114358927808188e-006	4.253142e-001	1.051385e+000
9.142074345688978e-006	4.171685e-001	1.053571e+000
9.169789763569770e-006	4.090228e-001	1.055758e+000
9.197505181450559e-006	4.008770e-001	1.057945e+000
1.000000000000003e-005	1.650190e-001	1.121274e+000
1.005781886771946e-005	1.513994e-001	1.125836e+000
1.017813043038569e-005	1.230593e-001	1.135331e+000
1.070622539353226e-005	-1.336629e-003	1.176995e+000
1.103565424569332e-005	-7.905285e-002	1.202983e+000
1.136508309785437e-005	-1.566506e-001	1.228953e+000
1.169451195001542e-005	-2.341298e-001	1.254905e+000
1.202394080217648e-005	-3.114906e-001	1.280841e+000
1.235336965433753e-005	-3.887328e-001	1.306759e+000
1.268279850649859e-005	-4.658566e-001	1.332660e+000
1.301222735865964e-005	-5.428619e-001	1.358544e+000
1.312066422024409e-005	-5.618659e-001	1.367056e+000
1.322910108182854e-005	-5.808700e-001	1.375565e+000
1.333753794341298e-005	-5.998740e-001	1.384070e+000
1.344597480499743e-005	-6.188781e-001	1.392571e+000
1.355441166658188e-005	-6.378821e-001	1.401069e+000
1.366284852816633e-005	-6.568862e-001	1.409564e+000
1.377128538975077e-005	-6.758902e-001	1.418055e+000
1.400905751435043e-005	-7.185997e-001	1.436667e+000
1.405063779424544e-005	-7.306555e-001	1.439919e+000
1.409221807414046e-005	-7.427114e-001	1.443171e+000
1.413379835403548e-005	-7.547672e-001	1.446422e+000
1.417537863393049e-005	-7.668231e-001	1.449672e+000
1.421695891382551e-005	-7.788790e-001	1.452922e+000
1.425853919372052e-005	-7.909348e-001	1.456171e+000
1.430011947361554e-005	-8.029907e-001	1.459419e+000
1.502487949571886e-005	-1.011632e+000	1.515944e+000
1.605118513040081e-005	-1.244417e+000	1.595616e+000
1.617707769913991e-005	-1.265860e+000	1.605356e+000
1.619048619047625e-005	-1.268144e+000	1.606393e+000
1.620542000432086e-005	-1.270688e+000	1.607548e+000
1.620564519307956e-005	-1.270726e+000	1.607565e+000
1.633566277805783e-005	-1.292872e+000	1.617614e+000
1.633855255292515e-005	-1.293364e+000	1.617837e+000
1.633922160757060e-005	-1.293478e+000	1.617889e+000
1.633960298647605e-005	-1.293543e+000	1.617918e+000
1.633983231711343e-005	-1.293582e+000	1.617936e+000
1.633996362869266e-005	-1.293604e+000	1.617946e+000
1.634011843742360e-005	-1.293631e+000	1.617958e+000
1.634030385256886e-005	-1.293662e+000	1.617972e+000
1.634364132518469e-005	-1.294231e+000	1.618230e+000
1.634697879780051e-005	-1.294799e+000	1.618488e+000
1.635031627041634e-005	-1.295368e+000	1.618746e+000
1.635365374303216e-005	-1.295936e+000	1.619004e+000
1.635699121564799e-005	-1.296505e+000	1.619262e+000
1.636032868826381e-005	-1.297073e+000	1.619519e+000
1.636366616087964e-005	-1.297642e+000	1.619777e+000
1.637794299552361e-005	-1.300073e+000	1.620880e+000
1.639318799595557e-005	-1.302670e+000	1.622057e+000
1.641022381927053e-005	-1.305572e+000	1.623373e+000
1.643137740693222e-005	-1.309175e+000	1.625006e+000
1.646349383486729e-005	-1.314645e+000	1.627485e+000
1.648862739430193e-005	-1.318926e+000	1.629425e+000
1.651647135307664e-005	-1.323668e+000	1.631574e+000
1.654832322429576e-005	-1.329094e+000	1.634032e+000
1.658715463309494e-005	-1.335708e+000	1.637027e+000
1.664507099262478e-005	-1.345573e+000	1.641493e+000
1.672086447037095e-005	-1.358482e+000	1.647334e+000
1.680984647141250e-005	-1.373639e+000	1.654188e+000
1.694267661889442e-005	-1.396263e+000	1.664413e+000
1.700768633337282e-005	-1.407752e+000	1.669415e+000
1.706119063721963e-005	-1.419761e+000	1.673529e+000
1.712767588895508e-005	-1.434684e+000	1.678638e+000
1.717327508071699e-005	-1.444919e+000	1.682141e+000
1.723194818751671e-005	-1.458088e+000	1.686646e+000
1.728846922680917e-005	-1.470774e+000	1.690985e+000
1.739070930363833e-005	-1.493722e+000	1.698826e+000
1.756271571001929e-005	-1.532328e+000	1.712005e+000
1.775197311058461e-005	-1.574807e+000	1.726486e+000
1.800000000000000e-005	-1.630477e+000	1.745441e+000
1.826496036079158e-005	-1.688988e+000	1.765633e+000
1.873227054900012e-005	-1.792185e+000	1.801141e+000
1.892100188451799e-005	-1.836848e+000	1.815446e+000
1.910973322003585e-005	-1.882831e+000	1.829725e+000
1.929846455555371e-005	-1.930134e+000	1.843978e+000
1.948719589107158e-005	-1.978757e+000	1.858203e+000
1.967592722658944e-005	-2.028699e+000	1.872401e+000
1.986465856210730e-005	-2.079962e+000	1.886573e+000
2.005338989762517e-005	-2.132545e+000	1.900718e+000
2.023318584569900e-005	-2.174256e+000	1.914167e+000
2.041298179377283e-005	-2.213886e+000	1.927591e+000
2.059277774184667e-005	-2.251435e+000	1.940987e+000
2.077257368992050e-005	-2.286903e+000	1.954357e+000
2.095236963799434e-005	-2.320290e+000	1.967700e+000
2.113216558606817e-005	-2.351595e+000	1.981017e+000
2.131196153414201e-005	-2.380819e+000	1.994307e+000
2.159707469983910e-005	-2.424855e+000	2.015327e+000
2.188218786553620e-005	-2.471742e+000	2.036270e+000
2.216730103123329e-005	-2.521481e+000	2.057135e+000
2.245241419693038e-005	-2.574072e+000	2.077924e+000
2.273752736262747e-005	-2.629514e+000	2.098636e+000
2.302264052832457e-005	-2.687807e+000	2.119271e+000
2.330775369402166e-005	-2.748952e+000	2.139828e+000
2.356707036827908e-005	-2.800069e+000	2.158458e+000
2.382638704253649e-005	-2.852848e+000	2.177016e+000
2.408570371679390e-005	-2.907288e+000	2.195501e+000
2.434502039105131e-005	-2.963390e+000	2.213913e+000
2.460433706530873e-005	-3.021154e+000	2.232252e+000
2.486365373956614e-005	-3.080579e+000	2.250519e+000
2.512297041382355e-005	-3.141666e+000	2.268713e+000
2.540230952799628e-005	-3.193994e+000	2.288225e+000
2.568164864216902e-005	-3.243430e+000	2.307644e+000
2.596098775634175e-005	-3.289975e+000	2.326969e+000
2.624032687051448e-005	-3.333629e+000	2.346200e+000
2.651966598468722e-005	-3.374392e+000	2.365338e+000
2.679900509885995e-005	-3.412263e+000	2.384382e+000
2.707834421303268e-005	-3.447243e+000	2.403332e+000
2.753065995166404e-005	-3.539615e+000	2.433811e+000
2.798297569029539e-005	-3.626547e+000	2.464009e+000
2.843529142892674e-005	-3.708040e+000	2.493927e+000
2.888760716755809e-005	-3.784094e+000	2.523565e+000
2.933992290618944e-005	-3.854709e+000	2.552922e+000
2.979223864482079e-005	-3.919884e+000	2.581999e+000
3.024455438345214e-005	-3.979620e+000	2.610796e+000
3.052014423427959e-005	-4.018556e+000	2.628187e+000
3.079573408510703e-005	-4.055566e+000	2.645462e+000
3.107132393593448e-005	-4.090652e+000	2.662620e+000
3.134691378676193e-005	-4.123812e+000	2.679662e+000
3.162250363758938e-005	-4.155047e+000	2.696588e+000
3.189809348841682e-005	-4.184357e+000	2.713398e+000
3.217368333924427e-005	-4.211742e+000	2.730092e+000
3.262603683699357e-005	-4.280240e+000	2.757235e+000
3.307839033474286e-005	-4.342537e+000	2.784034e+000
3.353074383249216e-005	-4.398632e+000	2.810488e+000
3.398309733024144e-005	-4.448525e+000	2.836599e+000
3.443545082799074e-005	-4.492216e+000	2.862365e+000
3.488780432574004e-005	-4.529706e+000	2.887788e+000
3.534015782348933e-005	-4.560994e+000	2.912866e+000
3.600584956299084e-005	-4.628951e+000	2.949131e+000
3.667154130249235e-005	-4.690309e+000	2.984557e+000
3.733723304199386e-005	-4.745069e+000	3.019144e+000
3.800292478149537e-005	-4.793230e+000	3.052892e+000
3.866861652099687e-005	-4.834792e+000	3.085801e+000
3.933430826049838e-005	-4.869756e+000	3.117870e+000
3.999999999999989e-005	-4.898120e+000	3.149101e+000
4.083681291164435e-005	-4.935002e+000	3.187115e+000
4.167362582328881e-005	-4.963506e+000	3.223637e+000
4.251043873493328e-005	-4.983633e+000	3.258665e+000
4.334725164657775e-005	-4.995382e+000	3.292201e+000
4.418406455822221e-005	-4.998753e+000	3.324243e+000
4.502087746986667e-005	-4.993747e+000	3.354793e+000
4.585769038151113e-005	-4.980363e+000	3.383850e+000
4.652246351818510e-005	-4.964803e+000	3.405806e+000
4.718723665485906e-005	-4.944640e+000	3.426740e+000
4.785200979153302e-005	-4.919874e+000	3.446651e+000
4.851678292820698e-005	-4.890506e+000	3.465538e+000
4.918155606488095e-005	-4.856535e+000	3.483403e+000
4.984632920155490e-005	-4.817961e+000	3.500245e+000
5.051110233822887e-005	-4.774785e+000	3.516063e+000
5.104359096630500e-005	-4.735884e+000	3.527976e+000
5.157607959438113e-005	-4.694898e+000	3.539204e+000
5.210856822245727e-005	-4.651825e+000	3.549748e+000
5.264105685053340e-005	-4.606667e+000	3.559608e+000
5.317354547860953e-005	-4.559423e+000	3.568784e+000
5.370603410668567e-005	-4.510093e+000	3.577276e+000
5.423852273476180e-005	-4.458677e+000	3.585084e+000
5.428571428571440e-005	-4.453529e+000	3.585740e+000
5.438009738761959e-005	-4.443234e+000	3.587036e+000
5.449026008644883e-005	-4.431217e+000	3.588523e+000
5.479548888797255e-005	-4.392908e+000	3.592496e+000
5.510071768949626e-005	-4.353681e+000	3.596240e+000
5.540594649101998e-005	-4.313536e+000	3.599755e+000
5.571117529254371e-005	-4.272473e+000	3.603040e+000
5.601640409406743e-005	-4.230491e+000	3.606097e+000
5.632163289559114e-005	-4.187592e+000	3.608924e+000
5.662686169711486e-005	-4.143775e+000	3.611521e+000
5.662716749231848e-005	-4.143735e+000	3.611524e+000
5.662765292415643e-005	-4.143672e+000	3.611528e+000
5.662766204762491e-005	-4.143671e+000	3.611528e+000
5.662768029456207e-005	-4.143669e+000	3.611528e+000
5.662771678843618e-005	-4.143664e+000	3.611528e+000
5.662778977618440e-005	-4.143654e+000	3.611529e+000
5.662784532442467e-005	-4.143647e+000	3.611530e+000
5.662787746389566e-005	-4.143643e+000	3.611530e+000
5.662789697811446e-005	-4.143641e+000	3.611530e+000
5.662790774554438e-005	-4.143639e+000	3.611530e+000
5.662791343059035e-005	-4.143638e+000	3.611530e+000
5.662791696055269e-005	-4.143638e+000	3.611530e+000
5.662792191610060e-005	-4.143637e+000	3.611530e+000
5.662792441518162e-005	-4.143637e+000	3.611530e+000
5.662792815931184e-005	-4.143636e+000	3.611530e+000
5.662793223185059e-005	-4.143636e+000	3.611530e+000
5.662794037692830e-005	-4.143635e+000	3.611530e+000
5.662795103361521e-005	-4.143633e+000	3.611530e+000
5.662797234698880e-005	-4.143631e+000	3.611531e+000
5.662801497373620e-005	-4.143625e+000	3.611531e+000
5.662810022723079e-005	-4.143614e+000	3.611531e+000
5.662819793655818e-005	-4.143601e+000	3.611532e+000
5.662831890514294e-005	-4.143586e+000	3.611533e+000
5.662847315691250e-005	-4.143566e+000	3.611535e+000
5.662866009423619e-005	-4.143541e+000	3.611536e+000
5.662889097454108e-005	-4.143511e+000	3.611538e+000
5.662917409991254e-005	-4.143475e+000	3.611540e+000
5.662950951808277e-005	-4.143431e+000	3.611543e+000
5.662994464581002e-005	-4.143374e+000	3.611547e+000
5.663118864575475e-005	-4.143213e+000	3.611557e+000
5.663325189355305e-005	-4.142945e+000	3.611573e+000
5.663477109247878e-005	-4.142748e+000	3.611586e+000
5.663683495188963e-005	-4.142480e+000	3.611602e+000
5.663958168642129e-005	-4.142124e+000	3.611625e+000
5.664341067144921e-005	-4.141627e+000	3.611656e+000
5.664845050203939e-005	-4.140973e+000	3.611696e+000
5.665349954097785e-005	-4.140317e+000	3.611737e+000
5.665947605802213e-005	-4.139542e+000	3.611785e+000
5.666582900084650e-005	-4.138717e+000	3.611836e+000
5.667371803505321e-005	-4.137693e+000	3.611899e+000
5.668372122460312e-005	-4.136395e+000	3.611979e+000
5.669718801067916e-005	-4.134647e+000	3.612087e+000
5.671554535169646e-005	-4.132264e+000	3.612232e+000
5.674624460835754e-005	-4.128279e+000	3.612474e+000
5.676958319001529e-005	-4.125250e+000	3.612656e+000
5.679175345931582e-005	-4.122373e+000	3.612828e+000
5.681777590403375e-005	-4.118995e+000	3.613028e+000
5.684417373560545e-005	-4.115569e+000	3.613229e+000
5.688060910085464e-005	-4.110839e+000	3.613503e+000
5.690982028918093e-005	-4.107048e+000	3.613722e+000
5.694373966465835e-005	-4.102645e+000	3.613972e+000
5.698332654412359e-005	-4.097507e+000	3.614261e+000
5.699999999999998e-005	-4.095343e+000	3.614382e+000
5.700503319940866e-005	-4.094819e+000	3.614418e+000
5.701509959822604e-005	-4.093770e+000	3.614490e+000
5.703523239586079e-005	-4.091672e+000	3.614634e+000
5.705933364729202e-005	-4.089161e+000	3.614805e+000
5.708926212773832e-005	-4.086042e+000	3.615014e+000
5.712488875323635e-005	-4.082330e+000	3.615261e+000
5.716931690136814e-005	-4.077701e+000	3.615565e+000
5.722662437927946e-005	-4.071730e+000	3.615949e+000
5.728017612528866e-005	-4.066151e+000	3.616300e+000
5.737469610150956e-005	-4.056302e+000	3.616899e+000
5.752307097298061e-005	-4.040843e+000	3.617800e+000
5.764321925046459e-005	-4.028324e+000	3.618494e+000
5.776378981882488e-005	-4.015761e+000	3.619148e+000
5.794059284400005e-005	-3.997339e+000	3.620055e+000
5.800165060525805e-005	-3.990908e+000	3.620355e+000
5.802475907887078e-005	-3.987528e+000	3.620463e+000
5.806860531912717e-005	-3.981114e+000	3.620665e+000
5.809896681335217e-005	-3.976673e+000	3.620802e+000
5.813897334095829e-005	-3.970821e+000	3.620979e+000
5.817875700140241e-005	-3.965002e+000	3.621151e+000
5.823445109936045e-005	-3.956855e+000	3.621385e+000
5.828805823633902e-005	-3.949013e+000	3.621602e+000
5.839527251029616e-005	-3.933331e+000	3.622011e+000
5.853580110090368e-005	-3.912774e+000	3.622505e+000
5.873122404858222e-005	-3.884189e+000	3.623106e+000
5.900000000000003e-005	-3.844873e+000	3.623830e+000
5.909384384531684e-005	-3.830345e+000	3.624025e+000
5.919130208669669e-005	-3.815257e+000	3.624206e+000
5.929162574602504e-005	-3.799725e+000	3.624370e+000
5.940499187943264e-005	-3.782175e+000	3.624524e+000
5.953258507682764e-005	-3.762421e+000	3.624651e+000
5.977298229480825e-005	-3.725204e+000	3.624784e+000
5.999999999999994e-005	-3.690059e+000	3.624826e+000
6.007695097383681e-005	-3.674253e+000	3.624800e+000
6.015390194767368e-005	-3.658448e+000	3.624757e+000
6.023085292151054e-005	-3.642642e+000	3.624700e+000
6.030780389534742e-005	-3.626836e+000	3.624627e+000
6.038475486918428e-005	-3.611031e+000	3.624538e+000
6.046170584302115e-005	-3.595225e+000	3.624434e+000
6.053865681685802e-005	-3.579419e+000	3.624315e+000
6.070679850716273e-005	-3.544883e+000	3.623999e+000
6.101333424600626e-005	-3.482365e+000	3.623297e+000
6.110606060107268e-005	-3.466406e+000	3.623030e+000
6.119878695613911e-005	-3.450448e+000	3.622739e+000
6.129151331120553e-005	-3.434489e+000	3.622426e+000
6.138423966627197e-005	-3.418531e+000	3.622091e+000
6.147696602133839e-005	-3.402572e+000	3.621732e+000
6.156969237640482e-005	-3.386614e+000	3.621351e+000
6.166241873147124e-005	-3.370655e+000	3.620946e+000
6.179452207111340e-005	-3.347611e+000	3.620359e+000
6.192662541075555e-005	-3.325717e+000	3.619725e+000
6.205872875039771e-005	-3.304974e+000	3.619043e+000
6.219083209003986e-005	-3.285382e+000	3.618313e+000
6.232293542968202e-005	-3.266940e+000	3.617536e+000
6.245503876932416e-005	-3.249649e+000	3.616712e+000
6.258714210896632e-005	-3.233509e+000	3.615840e+000
6.272391583807095e-005	-3.217119e+000	3.614911e+000
6.286068956717558e-005	-3.197501e+000	3.613934e+000
6.299746329628021e-005	-3.174656e+000	3.612907e+000
6.313423702538484e-005	-3.148584e+000	3.611831e+000
6.327101075448947e-005	-3.119284e+000	3.610706e+000
6.340778448359410e-005	-3.086757e+000	3.609531e+000
6.354455821269874e-005	-3.051002e+000	3.608308e+000
6.383508295320082e-005	-2.983505e+000	3.605579e+000
6.412560769370291e-005	-2.920145e+000	3.602640e+000
6.441613243420499e-005	-2.860922e+000	3.599490e+000
6.470665717470708e-005	-2.805836e+000	3.596128e+000
6.499718191520916e-005	-2.754888e+000	3.592556e+000
6.528770665571126e-005	-2.708076e+000	3.588773e+000
6.557823139621334e-005	-2.665402e+000	3.584779e+000
6.575540721731024e-005	-2.639029e+000	3.582255e+000
6.593258303840715e-005	-2.610495e+000	3.579652e+000
6.610975885950406e-005	-2.579802e+000	3.576968e+000
6.628693468060097e-005	-2.546949e+000	3.574203e+000
6.646411050169787e-005	-2.511936e+000	3.571359e+000
6.664128632279478e-005	-2.474763e+000	3.568434e+000
6.681846214389169e-005	-2.435431e+000	3.565428e+000
6.700581927749651e-005	-2.398081e+000	3.562183e+000
6.719317641110134e-005	-2.359788e+000	3.558852e+000
6.738053354470616e-005	-2.320552e+000	3.555437e+000
6.756789067831098e-005	-2.280373e+000	3.551936e+000
6.775524781191581e-005	-2.239250e+000	3.548350e+000
6.794260494552063e-005	-2.197185e+000	3.544679e+000
6.812996207912546e-005	-2.154177e+000	3.540923e+000
6.827196279008413e-005	-2.114762e+000	3.538009e+000
6.841396350104280e-005	-2.076062e+000	3.535049e+000
6.855596421200147e-005	-2.038076e+000	3.532043e+000
6.869796492296015e-005	-2.000804e+000	3.528991e+000
6.883996563391882e-005	-1.964246e+000	3.525893e+000
6.898196634487749e-005	-1.928402e+000	3.522749e+000
6.912396705583616e-005	-1.893272e+000	3.519559e+000
7.008034051639040e-005	-1.687773e+000	3.496769e+000
7.022294625418187e-005	-1.664750e+000	3.493178e+000
7.036555199197334e-005	-1.641229e+000	3.489540e+000
7.050815772976481e-005	-1.617211e+000	3.485857e+000
7.065076346755626e-005	-1.592695e+000	3.482127e+000
7.079336920534773e-005	-1.567681e+000	3.478352e+000
7.093597494313920e-005	-1.542170e+000	3.474531e+000
7.107858068093067e-005	-1.516161e+000	3.470664e+000
7.302840601762701e-005	-1.071064e+000	3.412937e+000
7.307891825751502e-005	-1.056448e+000	3.411324e+000
7.317291248202552e-005	-1.029250e+000	3.408307e+000
7.338472229819729e-005	-9.679615e-001	3.401429e+000
7.402859713322206e-005	-7.832549e-001	3.379923e+000
7.413959794271268e-005	-7.573580e-001	3.376118e+000
7.499999999999998e-005	-5.566230e-001	3.345690e+000
7.506415125884573e-005	-5.453353e-001	3.343354e+000
7.512830251769147e-005	-5.340476e-001	3.341009e+000
7.519245377653721e-005	-5.227599e-001	3.338655e+000
7.525660503538295e-005	-5.114722e-001	3.336291e+000
7.532075629422869e-005	-5.001845e-001	3.333917e+000
7.538490755307444e-005	-4.888968e-001	3.331534e+000
7.544905881192018e-005	-4.776091e-001	3.329141e+000
7.600674490156425e-005	-3.786845e-001	3.307986e+000
7.603307919921908e-005	-3.709383e-001	3.306969e+000
