time	V(vin)	V(vout)
0.000000000000000e+000	4.755282e+000	-2.326295e+000
2.053513195785471e-007	4.745216e+000	-2.280407e+000
4.791530790165376e-007	4.731486e+000	-2.218704e+000
8.231223125913182e-007	4.713743e+000	-2.140544e+000
1.068793846714829e-006	4.700732e+000	-2.084190e+000
1.481556927004305e-006	4.678243e+000	-1.988146e+000
2.000000000000049e-006	4.648882e+000	-1.866095e+000
2.483941900905100e-006	4.620362e+000	-1.750068e+000
2.616657469931012e-006	4.612354e+000	-1.718059e+000
2.749373038956923e-006	4.604265e+000	-1.685924e+000
2.882088607982834e-006	4.596097e+000	-1.653664e+000
3.014804177008745e-006	4.587849e+000	-1.621279e+000
3.147519746034656e-006	4.579521e+000	-1.588769e+000
3.280235315060567e-006	4.571114e+000	-1.556133e+000
3.412950884086477e-006	4.562626e+000	-1.523372e+000
3.492073492063685e-006	4.557528e+000	-1.503796e+000
3.533779101398855e-006	4.554831e+000	-1.493464e+000
3.534410359086688e-006	4.554790e+000	-1.493308e+000
3.660928506607920e-006	4.546556e+000	-1.461885e+000
3.662440451032830e-006	4.546457e+000	-1.461509e+000
3.663200334232597e-006	4.546407e+000	-1.461320e+000
3.663656372661838e-006	4.546377e+000	-1.461206e+000
3.663921320181708e-006	4.546360e+000	-1.461140e+000
3.664076389838043e-006	4.546350e+000	-1.461102e+000
3.664167263657796e-006	4.546344e+000	-1.461079e+000
3.664248307641820e-006	4.546339e+000	-1.461059e+000
3.664293753952381e-006	4.546336e+000	-1.461048e+000
3.664323025013867e-006	4.546334e+000	-1.461040e+000
3.664346715581603e-006	4.546332e+000	-1.461034e+000
3.664371613756271e-006	4.546330e+000	-1.461028e+000
3.664395266931393e-006	4.546329e+000	-1.461022e+000
3.664414421184446e-006	4.546328e+000	-1.461017e+000
3.664435276775138e-006	4.546327e+000	-1.461012e+000
3.664476987956522e-006	4.546324e+000	-1.461002e+000
3.664529031012368e-006	4.546320e+000	-1.460989e+000
3.664592936523893e-006	4.546316e+000	-1.460973e+000
3.664664486574933e-006	4.546311e+000	-1.460955e+000
3.664756869508918e-006	4.546305e+000	-1.460932e+000
3.664872113233637e-006	4.546298e+000	-1.460904e+000
3.665035327838229e-006	4.546287e+000	-1.460863e+000
3.665268904677740e-006	4.546272e+000	-1.460805e+000
3.668131948997809e-006	4.546085e+000	-1.460093e+000
3.671403999649502e-006	4.545871e+000	-1.459278e+000
3.677948100952889e-006	4.545443e+000	-1.457650e+000
3.691036303559662e-006	4.544586e+000	-1.454392e+000
3.707447283508988e-006	4.543510e+000	-1.450305e+000
3.725151589090668e-006	4.542348e+000	-1.445895e+000
3.745609056850403e-006	4.541005e+000	-1.440796e+000
3.772492355228179e-006	4.539236e+000	-1.434092e+000
3.802266100218698e-006	4.537272e+000	-1.426663e+000
3.833092791397357e-006	4.535236e+000	-1.418964e+000
3.869907938157261e-006	4.532798e+000	-1.409763e+000
3.909094637068872e-006	4.530197e+000	-1.399958e+000
3.970317330729894e-006	4.526118e+000	-1.384626e+000
3.999999999999880e-006	4.524135e+000	-1.377186e+000
4.036733616196450e-006	4.521676e+000	-1.367966e+000
4.085711771125138e-006	4.518386e+000	-1.355659e+000
4.183668080982731e-006	4.511776e+000	-1.330991e+000
4.379580700697699e-006	4.498427e+000	-1.281489e+000
4.626000878542877e-006	4.481395e+000	-1.218933e+000
4.922145875976749e-006	4.460571e+000	-1.143419e+000
5.000000000000013e-006	4.455033e+000	-1.123501e+000
5.106887771945314e-006	4.447385e+000	-1.096043e+000
5.534438859726518e-006	4.416294e+000	-9.855422e-001
5.999999999999929e-006	4.381534e+000	-8.645209e-001
6.399047681929183e-006	4.350993e+000	-7.597312e-001
7.090301385578130e-006	4.296473e+000	-5.768906e-001
7.315204444081753e-006	4.278293e+000	-5.169404e-001
7.540107502585376e-006	4.259903e+000	-4.568230e-001
7.765010561088999e-006	4.241301e+000	-3.965385e-001
7.989913619592622e-006	4.222488e+000	-3.360869e-001
8.214816678096244e-006	4.203465e+000	-2.754681e-001
8.439719736599868e-006	4.184230e+000	-2.146822e-001
8.664622795103490e-006	4.164784e+000	-1.537292e-001
8.999999999999894e-006	4.135403e+000	-6.271791e-002
9.212679294432966e-006	4.116533e+000	-4.778025e-003
1.000000000000003e-005	4.045085e+000	2.104201e-001
1.022081761780715e-005	4.024597e+000	2.710181e-001
1.044163523561428e-005	4.003918e+000	3.316680e-001
1.066245285342141e-005	3.983048e+000	3.923701e-001
1.088327047122854e-005	3.961987e+000	4.531242e-001
1.110408808903566e-005	3.940735e+000	5.139304e-001
1.132490570684279e-005	3.919292e+000	5.747887e-001
1.154572332464992e-005	3.897657e+000	6.356990e-001
1.215244422004061e-005	3.837258e+000	8.030938e-001
1.299999999999999e-005	3.750555e+000	1.036952e+000
1.356912508815159e-005	3.690839e+000	1.193729e+000
1.399999999999991e-005	3.644843e+000	1.312270e+000
1.437791962391249e-005	3.603950e+000	1.415960e+000
1.480982776552687e-005	3.556593e+000	1.534214e+000
1.500000000000004e-005	3.535534e+000	1.586208e+000
1.525914488496871e-005	3.506633e+000	1.656834e+000
1.560467139826013e-005	3.467738e+000	1.750756e+000
1.599999999999996e-005	3.422735e+000	1.857982e+000
1.617238011135738e-005	3.402947e+000	1.904533e+000
1.640222025983381e-005	3.376407e+000	1.966426e+000
1.686190055678665e-005	3.322800e+000	2.089853e+000
1.700000000000009e-005	3.306559e+000	2.126836e+000
1.709193605939070e-005	3.295713e+000	2.151354e+000
1.727580817817193e-005	3.273938e+000	2.200292e+000
1.764355241573416e-005	3.230061e+000	2.297808e+000
1.800000000000000e-005	3.187120e+000	2.391995e+000
1.842949975210746e-005	3.134848e+000	2.504418e+000
1.892035661165878e-005	3.074411e+000	2.632093e+000
1.899999999999992e-005	3.064535e+000	2.652729e+000
1.909817137191010e-005	3.052336e+000	2.678018e+000
1.929451411573067e-005	3.027850e+000	2.728439e+000
1.968719960337181e-005	2.978534e+000	2.828761e+000
2.006600023416187e-005	2.930533e+000	2.924927e+000
2.046200163913345e-005	2.879908e+000	3.024179e+000
2.062739886631550e-005	2.858629e+000	3.065543e+000
2.079279609349755e-005	2.837275e+000	3.106693e+000
2.095819332067961e-005	2.815845e+000	3.147629e+000
2.112359054786167e-005	2.794340e+000	3.188351e+000
2.128898777504372e-005	2.772758e+000	3.228859e+000
2.145438500222578e-005	2.751101e+000	3.269153e+000
2.161978222940783e-005	2.729369e+000	3.309233e+000
2.196903326936101e-005	2.683226e+000	3.393535e+000
2.231828430931419e-005	2.636774e+000	3.476878e+000
2.266753534926736e-005	2.590013e+000	3.559262e+000
2.301678638922053e-005	2.542943e+000	3.640686e+000
2.336603742917371e-005	2.495564e+000	3.721150e+000
2.371528846912689e-005	2.447876e+000	3.800654e+000
2.406453950908006e-005	2.399879e+000	3.879200e+000
2.448389100778289e-005	2.341860e+000	3.972091e+000
2.490324250648573e-005	2.283459e+000	4.063342e+000
2.532259400518856e-005	2.224677e+000	4.152953e+000
2.574194550389140e-005	2.165514e+000	4.240925e+000
2.616129700259423e-005	2.105970e+000	4.327257e+000
2.658064850129707e-005	2.046045e+000	4.411948e+000
2.699999999999990e-005	1.985739e+000	4.495000e+000
2.729823022402831e-005	1.942650e+000	4.552823e+000
2.759646044805672e-005	1.899400e+000	4.609711e+000
2.789469067208513e-005	1.855988e+000	4.665666e+000
2.819292089611354e-005	1.812416e+000	4.720687e+000
2.849115112014195e-005	1.768683e+000	4.774774e+000
2.878938134417036e-005	1.724789e+000	4.827927e+000
2.908761156819877e-005	1.680735e+000	4.880147e+000
2.936080991559894e-005	1.640249e+000	4.926974e+000
2.963400826299912e-005	1.599650e+000	4.972966e+000
2.990720661039929e-005	1.558938e+000	5.018121e+000
3.018040495779947e-005	1.518112e+000	5.062441e+000
3.045360330519964e-005	1.477173e+000	5.105925e+000
3.072680165259982e-005	1.436121e+000	5.148572e+000
3.100000000000000e-005	1.394956e+000	5.190384e+000
3.199999999999991e-005	1.243449e+000	5.335369e+000
3.300000000000004e-005	1.090716e+000	5.468056e+000
3.399999999999996e-005	9.369066e-001	5.588209e+000
3.499999999999988e-005	7.821723e-001	5.695585e+000
3.529411358973572e-005	7.364993e-001	5.724584e+000
3.558822717947156e-005	6.907732e-001	5.752485e+000
3.588234076920741e-005	6.449940e-001	5.779288e+000
3.617645435894326e-005	5.991617e-001	5.804995e+000
3.647056794867910e-005	5.532763e-001	5.829603e+000
3.676468153841495e-005	5.073378e-001	5.853114e+000
3.705879512815079e-005	4.613462e-001	5.875528e+000
3.800000000000006e-005	3.139526e-001	5.939235e+000
3.899999999999997e-005	1.570538e-001	5.993956e+000
3.999999999999989e-005	1.568905e-011	6.035412e+000
4.044241578135451e-005	-6.952560e-002	6.049414e+000
4.088483156270912e-005	-1.390043e-001	6.060879e+000
4.132724734406374e-005	-2.084361e-001	6.069808e+000
4.176966312541836e-005	-2.778211e-001	6.076200e+000
4.221207890677297e-005	-3.471591e-001	6.080056e+000
4.265449468812759e-005	-4.164502e-001	6.081375e+000
4.309691046948221e-005	-4.856945e-001	6.080157e+000
4.337764078819453e-005	-5.295720e-001	6.077969e+000
4.365837110690685e-005	-5.733997e-001	6.074815e+000
4.393910142561917e-005	-6.171779e-001	6.070695e+000
4.421983174433150e-005	-6.609063e-001	6.065610e+000
4.450056206304382e-005	-7.045850e-001	6.059559e+000
4.478129238175615e-005	-7.482141e-001	6.052543e+000
4.506202270046847e-005	-7.917934e-001	6.044560e+000
4.535021789420149e-005	-8.364679e-001	6.035189e+000
4.563841308793452e-005	-8.810646e-001	6.024840e+000
4.592660828166755e-005	-9.255837e-001	6.013513e+000
4.621480347540057e-005	-9.700250e-001	6.001209e+000
4.650299866913361e-005	-1.014389e+000	5.987927e+000
4.679119386286663e-005	-1.058675e+000	5.973668e+000
4.707938905659966e-005	-1.102883e+000	5.958431e+000
4.736728528302920e-005	-1.146955e+000	5.942120e+000
4.765518150945875e-005	-1.190924e+000	5.924893e+000
4.794307773588830e-005	-1.234791e+000	5.906748e+000
4.823097396231784e-005	-1.278554e+000	5.887686e+000
4.851887018874739e-005	-1.322215e+000	5.867706e+000
4.880676641517694e-005	-1.365773e+000	5.846810e+000
4.909466264160648e-005	-1.409228e+000	5.824997e+000
4.999999999999991e-005	-1.545085e+000	5.750552e+000
5.106058409062820e-005	-1.702640e+000	5.652374e+000
5.199999999999996e-005	-1.840623e+000	5.556129e+000
5.299999999999988e-005	-1.985739e+000	5.444468e+000
5.400000000000001e-005	-2.128896e+000	5.323919e+000
5.413714996439149e-005	-2.148370e+000	5.306689e+000
5.428571428571440e-005	-2.169419e+000	5.287859e+000
5.448240805951696e-005	-2.197214e+000	5.262677e+000
5.467358695183900e-005	-2.224149e+000	5.237924e+000
5.499999999999993e-005	-2.269953e+000	5.195051e+000
5.600000000000006e-005	-2.408768e+000	5.058449e+000
5.665879945021676e-005	-2.498930e+000	4.964488e+000
5.666307379542093e-005	-2.499511e+000	4.963869e+000
5.666576185836872e-005	-2.499877e+000	4.963480e+000
5.666868631996717e-005	-2.500275e+000	4.963056e+000
5.667071192770341e-005	-2.500550e+000	4.962762e+000
5.667297632332147e-005	-2.500858e+000	4.962434e+000
5.667621359138034e-005	-2.501299e+000	4.961965e+000
5.667914484013318e-005	-2.501697e+000	4.961540e+000
5.667945426705585e-005	-2.501739e+000	4.961495e+000
5.668007312090119e-005	-2.501823e+000	4.961405e+000
5.668131082859165e-005	-2.501992e+000	4.961226e+000
5.668162025551432e-005	-2.502034e+000	4.961181e+000
5.668196929851954e-005	-2.502081e+000	4.961130e+000
5.668215010945629e-005	-2.502106e+000	4.961104e+000
5.668239575138605e-005	-2.502139e+000	4.961068e+000
5.668256090246918e-005	-2.502162e+000	4.961044e+000
5.668278718624258e-005	-2.502193e+000	4.961011e+000
5.668299758658448e-005	-2.502221e+000	4.960981e+000
5.668325972635205e-005	-2.502257e+000	4.960943e+000
5.668362070159285e-005	-2.502306e+000	4.960891e+000
5.668395172633151e-005	-2.502351e+000	4.960843e+000
5.668445155128095e-005	-2.502419e+000	4.960770e+000
5.668497603316400e-005	-2.502490e+000	4.960694e+000
5.668575019023253e-005	-2.502596e+000	4.960582e+000
5.668784696872663e-005	-2.502881e+000	4.960278e+000
5.668928430895524e-005	-2.503076e+000	4.960069e+000
5.669141990686101e-005	-2.503366e+000	4.959760e+000
5.669409500356939e-005	-2.503730e+000	4.959372e+000
5.669842684884034e-005	-2.504319e+000	4.958743e+000
5.670534152162152e-005	-2.505259e+000	4.957739e+000
5.671273792484839e-005	-2.506265e+000	4.956666e+000
5.672239164138571e-005	-2.507577e+000	4.955264e+000
5.673366172039983e-005	-2.509108e+000	4.953626e+000
5.674974907313168e-005	-2.511294e+000	4.951287e+000
5.677146674528365e-005	-2.514243e+000	4.948126e+000
5.679733430801392e-005	-2.517754e+000	4.944357e+000
5.682117106034436e-005	-2.520988e+000	4.940881e+000
5.687545332744553e-005	-2.528348e+000	4.932950e+000
5.690802214651861e-005	-2.532761e+000	4.928181e+000
5.695792894028825e-005	-2.539517e+000	4.920861e+000
5.699999999999998e-005	-2.545207e+000	4.914682e+000
5.700525873535188e-005	-2.545918e+000	4.913908e+000
5.701577620605591e-005	-2.547340e+000	4.912360e+000
5.703681114746376e-005	-2.550182e+000	4.909261e+000
5.707888103027945e-005	-2.555864e+000	4.903054e+000
5.714539793051773e-005	-2.564839e+000	4.893219e+000
5.721892675621186e-005	-2.574747e+000	4.882313e+000
5.731739802053372e-005	-2.587994e+000	4.867650e+000
5.744892678018958e-005	-2.605649e+000	4.847970e+000
5.759958750707682e-005	-2.625818e+000	4.825311e+000
5.772247610970685e-005	-2.642226e+000	4.806718e+000
5.790429702578820e-005	-2.666429e+000	4.779058e+000
5.801847313557039e-005	-2.681584e+000	4.761607e+000
5.812931194899319e-005	-2.696262e+000	4.744555e+000
5.827709703355700e-005	-2.715782e+000	4.721682e+000
5.857266720268439e-005	-2.754647e+000	4.675549e+000
5.900000000000003e-005	-2.810417e+000	4.608340e+000
5.917734210147659e-005	-2.833413e+000	4.580050e+000
5.941379823677867e-005	-2.863938e+000	4.542038e+000
5.988671050738263e-005	-2.924511e+000	4.465476e+000
5.999999999999994e-005	-2.938926e+000	4.447023e+000
6.018075822856171e-005	-2.961849e+000	4.417319e+000
6.042176919997754e-005	-2.992265e+000	4.377454e+000
6.090379114280899e-005	-3.052580e+000	4.297248e+000
6.100000000000007e-005	-3.064535e+000	4.281158e+000
6.120774135478960e-005	-3.090254e+000	4.246148e+000
6.148472982784215e-005	-3.124341e+000	4.199295e+000
6.154913859936196e-005	-3.132233e+000	4.188363e+000
6.167795614240136e-005	-3.147980e+000	4.166443e+000
6.170746484854964e-005	-3.151580e+000	4.161415e+000
6.173697355469790e-005	-3.155177e+000	4.156383e+000
6.176648226084617e-005	-3.158771e+000	4.151348e+000
6.179599096699444e-005	-3.162363e+000	4.146310e+000
6.182549967314272e-005	-3.165952e+000	4.141268e+000
6.185500837929098e-005	-3.169538e+000	4.136223e+000
6.188451708543925e-005	-3.173122e+000	4.131175e+000
6.199999999999999e-005	-3.187120e+000	4.111398e+000
6.209017228012755e-005	-3.198021e+000	4.095919e+000
6.219322631455921e-005	-3.210448e+000	4.078191e+000
6.239933438342230e-005	-3.235200e+000	4.042618e+000
6.281155052114849e-005	-3.284297e+000	3.971201e+000
6.308244322754506e-005	-3.316262e+000	3.924051e+000
6.357710259281661e-005	-3.374011e+000	3.837353e+000
6.406244202364657e-005	-3.429879e+000	3.751913e+000
6.444130832438840e-005	-3.472953e+000	3.684759e+000
6.482017462513024e-005	-3.515520e+000	3.617469e+000
6.519904092587208e-005	-3.557580e+000	3.550044e+000
6.557790722661390e-005	-3.599133e+000	3.482482e+000
6.595677352735574e-005	-3.640178e+000	3.414786e+000
6.633563982809758e-005	-3.680717e+000	3.346953e+000
6.671450612883941e-005	-3.720748e+000	3.278986e+000
6.698413698412735e-005	-3.748907e+000	3.230660e+000
6.700000000000000e-005	-3.750555e+000	3.227817e+000
6.712841163843651e-005	-3.763864e+000	3.204802e+000
6.713404355307971e-005	-3.764446e+000	3.203792e+000
6.713561766180740e-005	-3.764609e+000	3.203510e+000
6.713634713103938e-005	-3.764684e+000	3.203379e+000
6.713663937374880e-005	-3.764715e+000	3.203327e+000
6.713683025915394e-005	-3.764735e+000	3.203293e+000
6.713695117316646e-005	-3.764747e+000	3.203271e+000
6.713799168090175e-005	-3.764854e+000	3.203084e+000
6.713903218863702e-005	-3.764962e+000	3.202898e+000
6.714007269637230e-005	-3.765070e+000	3.202712e+000
6.714111320410759e-005	-3.765177e+000	3.202525e+000
6.714215371184287e-005	-3.765285e+000	3.202339e+000
6.714319421957814e-005	-3.765392e+000	3.202152e+000
6.714423472731343e-005	-3.765500e+000	3.201966e+000
6.715160633518616e-005	-3.766261e+000	3.200644e+000
6.716479056939617e-005	-3.767623e+000	3.198282e+000
6.717878137171081e-005	-3.769068e+000	3.195774e+000
6.720804726154236e-005	-3.772087e+000	3.190530e+000
6.724769837978791e-005	-3.776172e+000	3.183424e+000
6.728247307632952e-005	-3.779750e+000	3.177192e+000
6.732749024866507e-005	-3.784375e+000	3.169126e+000
6.735562895953035e-005	-3.787263e+000	3.164084e+000
6.738846387593510e-005	-3.790628e+000	3.158201e+000
6.744883592592387e-005	-3.796805e+000	3.147386e+000
6.751074741726893e-005	-3.803126e+000	3.136296e+000
6.757585121854124e-005	-3.809757e+000	3.124635e+000
6.766771359656919e-005	-3.819086e+000	3.108186e+000
6.775787138480209e-005	-3.828212e+000	3.092045e+000
6.788199371901039e-005	-3.840724e+000	3.069832e+000
6.799999999999992e-005	-3.852566e+000	3.048719e+000
6.804293231177459e-005	-3.856861e+000	3.041041e+000
6.810017539414103e-005	-3.862577e+000	3.030807e+000
6.821466155887369e-005	-3.873972e+000	3.010348e+000
6.844363388833902e-005	-3.896610e+000	2.969467e+000
6.875236403765033e-005	-3.926815e+000	2.914417e+000
6.903906877383181e-005	-3.954533e+000	2.863367e+000
6.958603160747636e-005	-4.006523e+000	2.766380e+000
7.018753011439225e-005	-4.062329e+000	2.660203e+000
7.099999999999988e-005	-4.135403e+000	2.517982e+000
7.128571428571417e-005	-4.160467e+000	2.468336e+000
7.157142857142846e-005	-4.185192e+000	2.418926e+000
7.185714285714276e-005	-4.209576e+000	2.369751e+000
7.214285714285706e-005	-4.233620e+000	2.320812e+000
7.242857142857135e-005	-4.257323e+000	2.272109e+000
7.271428571428564e-005	-4.280687e+000	2.223641e+000
7.299999999999993e-005	-4.303710e+000	2.175409e+000
7.400000000000006e-005	-4.381534e+000	2.009110e+000
7.499999999999998e-005	-4.455033e+000	1.846776e+000
7.599999999999990e-005	-4.524135e+000	1.688875e+000
7.700000000000003e-005	-4.588773e+000	1.535823e+000
7.717922476361736e-005	-4.599882e+000	1.508956e+000
7.735844952723469e-005	-4.610844e+000	1.482259e+000
7.753767429085202e-005	-4.621660e+000	1.455732e+000
7.771689905446935e-005	-4.632328e+000	1.429375e+000
7.789612381808669e-005	-4.642850e+000	1.403188e+000
7.807534858170402e-005	-4.653225e+000	1.377171e+000
7.825457334532135e-005	-4.663454e+000	1.351323e+000
7.850392001027545e-005	-4.677440e+000	1.315673e+000
7.875326667522953e-005	-4.691136e+000	1.280386e+000
7.900261334018363e-005	-4.704543e+000	1.245461e+000
7.925196000513771e-005	-4.717662e+000	1.210899e+000
7.950130667009181e-005	-4.730491e+000	1.176699e+000
7.975065333504590e-005	-4.743031e+000	1.142862e+000
7.999999999999999e-005	-4.755282e+000	1.109387e+000
8.099999999999991e-005	-4.801468e+000	9.791787e-001
8.200000000000004e-005	-4.842916e+000	8.553596e-001
8.306752604201402e-005	-4.881886e+000	7.304752e-001
8.335317258185984e-005	-4.891387e+000	6.983782e-001
8.363881912170567e-005	-4.900491e+000	6.668293e-001
8.392446566155149e-005	-4.909200e+000	6.358285e-001
8.421011220139731e-005	-4.917513e+000	6.053759e-001
8.449575874124313e-005	-4.925430e+000	5.754714e-001
8.478140528108896e-005	-4.932952e+000	5.461149e-001
8.506705182093478e-005	-4.940078e+000	5.173066e-001
8.545753244560801e-005	-4.949177e+000	4.789102e-001
8.584801307028122e-005	-4.957527e+000	4.415723e-001
8.623849369495445e-005	-4.965131e+000	4.052928e-001
8.662897431962766e-005	-4.971986e+000	3.700719e-001
8.701945494430089e-005	-4.978094e+000	3.359095e-001
8.740993556897412e-005	-4.983454e+000	3.028055e-001
8.780041619364733e-005	-4.988067e+000	2.707601e-001
8.798129447727211e-005	-4.989948e+000	2.562584e-001
8.816217276089690e-005	-4.991668e+000	2.419803e-001
8.834305104452168e-005	-4.993227e+000	2.279257e-001
8.852392932814648e-005	-4.994625e+000	2.140948e-001
8.870480761177127e-005	-4.995861e+000	2.004875e-001
8.888568589539605e-005	-4.996936e+000	1.871037e-001
8.906656417902083e-005	-4.997850e+000	1.739436e-001
8.966740393372510e-005	-4.999727e+000	1.319643e-001
9.003325960662743e-005	-4.999997e+000	1.074251e-001
9.049889409941240e-005	-4.999386e+000	7.783745e-002
9.099999999999994e-005	-4.997533e+000	4.714022e-002
9.115964611181200e-005	-4.996682e+000	3.782153e-002
9.137250759422787e-005	-4.995353e+000	2.568030e-002
