time	V(vin)	V(vout)
0.000000000000000e+000	-5.000000e+000	3.658457e+000
9.999999999999159e-007	-4.999383e+000	3.684654e+000
2.000000000000049e-006	-4.997533e+000	3.706830e+000
2.999999999999965e-006	-4.994449e+000	3.724771e+000
3.999999999999880e-006	-4.990134e+000	3.738352e+000
5.000000000000013e-006	-4.984587e+000	3.747420e+000
5.165796867029573e-006	-4.983548e+000	3.748429e+000
5.331593734059133e-006	-4.982476e+000	3.749324e+000
5.497390601088693e-006	-4.981370e+000	3.750107e+000
5.663187468118253e-006	-4.980230e+000	3.750777e+000
5.828984335147812e-006	-4.979056e+000	3.751334e+000
5.994781202177372e-006	-4.977849e+000	3.751778e+000
6.160578069206932e-006	-4.976607e+000	3.752109e+000
6.423352630748795e-006	-4.974571e+000	3.752273e+000
6.686127192290659e-006	-4.972450e+000	3.752112e+000
6.948901753832523e-006	-4.970244e+000	3.751626e+000
7.211676315374387e-006	-4.967953e+000	3.750815e+000
7.474450876916250e-006	-4.965578e+000	3.749680e+000
7.737225438458114e-006	-4.963118e+000	3.748220e+000
7.999999999999978e-006	-4.960574e+000	3.746435e+000
9.053634807718730e-006	-4.949523e+000	3.735682e+000
1.000000000000003e-005	-4.938442e+000	3.721318e+000
1.106725691873869e-005	-4.924636e+000	3.699642e+000
1.135566148120253e-005	-4.920667e+000	3.692772e+000
1.164406604366637e-005	-4.916597e+000	3.685484e+000
1.193247060613020e-005	-4.912427e+000	3.677778e+000
1.222087516859404e-005	-4.908156e+000	3.669653e+000
1.250927973105788e-005	-4.903784e+000	3.661109e+000
1.279768429352171e-005	-4.899312e+000	3.652147e+000
1.308608885598555e-005	-4.894739e+000	3.642767e+000
1.406754992841876e-005	-4.878424e+000	3.607569e+000
1.443007813273517e-005	-4.872104e+000	3.593316e+000
1.479260633705158e-005	-4.865626e+000	3.578383e+000
1.515513454136799e-005	-4.858991e+000	3.562772e+000
1.551766274568440e-005	-4.852198e+000	3.546482e+000
1.588019095000081e-005	-4.845248e+000	3.529512e+000
1.624271915431722e-005	-4.838140e+000	3.511864e+000
1.660524735863363e-005	-4.830875e+000	3.493536e+000
1.706792559813238e-005	-4.821377e+000	3.469411e+000
1.734393622697060e-005	-4.815589e+000	3.454380e+000
1.761994685580882e-005	-4.809710e+000	3.438982e+000
1.789595748464704e-005	-4.803742e+000	3.423219e+000
1.817196811348526e-005	-4.797683e+000	3.407089e+000
1.844797874232348e-005	-4.791534e+000	3.390593e+000
1.872398937116170e-005	-4.785295e+000	3.373730e+000
1.899999999999992e-005	-4.778965e+000	3.356501e+000
2.006838805824053e-005	-4.753620e+000	3.286190e+000
2.099999999999997e-005	-4.730427e+000	3.220483e+000
2.199999999999988e-005	-4.704404e+000	3.145452e+000
2.300000000000002e-005	-4.677220e+000	3.065894e+000
2.399999999999993e-005	-4.648882e+000	2.981975e+000
2.508824663408809e-005	-4.616741e+000	2.885855e+000
2.599999999999998e-005	-4.588773e+000	2.801692e+000
2.699999999999990e-005	-4.557016e+000	2.705699e+000
2.800000000000003e-005	-4.524135e+000	2.606071e+000
2.899999999999995e-005	-4.490138e+000	2.503014e+000
2.929857971165575e-005	-4.479771e+000	2.471579e+000
2.959715942331155e-005	-4.469307e+000	2.439887e+000
2.989573913496735e-005	-4.458744e+000	2.407940e+000
3.019431884662316e-005	-4.448083e+000	2.375736e+000
3.049289855827896e-005	-4.437325e+000	2.343275e+000
3.079147826993476e-005	-4.426468e+000	2.310559e+000
3.109005798159056e-005	-4.415514e+000	2.277586e+000
3.137104835373269e-005	-4.405116e+000	2.246308e+000
3.165203872587482e-005	-4.394633e+000	2.214843e+000
3.193302909801695e-005	-4.384065e+000	2.183192e+000
3.221401947015908e-005	-4.373411e+000	2.151356e+000
3.249500984230122e-005	-4.362672e+000	2.119333e+000
3.277600021444334e-005	-4.351848e+000	2.087124e+000
3.305699058658547e-005	-4.340938e+000	2.054730e+000
3.362027764564468e-005	-4.318810e+000	1.989138e+000
3.418356470470388e-005	-4.296349e+000	1.923040e+000
3.474685176376309e-005	-4.273554e+000	1.856435e+000
3.531013882282230e-005	-4.250425e+000	1.789323e+000
3.587342588188151e-005	-4.226963e+000	1.721705e+000
3.643671294094071e-005	-4.203166e+000	1.653580e+000
3.699999999999992e-005	-4.179037e+000	1.584948e+000
3.742857142857135e-005	-4.160460e+000	1.532531e+000
3.785714285714277e-005	-4.141697e+000	1.480008e+000
3.828571428571420e-005	-4.122747e+000	1.427379e+000
3.871428571428562e-005	-4.103611e+000	1.374645e+000
3.914285714285704e-005	-4.084289e+000	1.321805e+000
3.957142857142847e-005	-4.064780e+000	1.268860e+000
3.999999999999989e-005	-4.045085e+000	1.215809e+000
4.029425901662369e-005	-4.031457e+000	1.179386e+000
4.058851803324748e-005	-4.017743e+000	1.142980e+000
4.088277704987127e-005	-4.003944e+000	1.106588e+000
4.117703606649506e-005	-3.990060e+000	1.070213e+000
4.147129508311886e-005	-3.976090e+000	1.033853e+000
4.176555409974266e-005	-3.962035e+000	9.975081e-001
4.205981311636645e-005	-3.947894e+000	9.611791e-001
4.300000000000007e-005	-3.902152e+000	8.454925e-001
4.328571428571433e-005	-3.888082e+000	8.104547e-001
4.357142857142859e-005	-3.873934e+000	7.755022e-001
4.385714285714285e-005	-3.859708e+000	7.406349e-001
4.414285714285712e-005	-3.845405e+000	7.058530e-001
4.442857142857138e-005	-3.831024e+000	6.711563e-001
4.471428571428564e-005	-3.816566e+000	6.365449e-001
4.499999999999990e-005	-3.802030e+000	6.020188e-001
4.600000000000003e-005	-3.750555e+000	4.822049e-001
4.699999999999995e-005	-3.698155e+000	3.640733e-001
4.799999999999987e-005	-3.644843e+000	2.479071e-001
4.829714285714272e-005	-3.628827e+000	2.138102e-001
4.859428571428558e-005	-3.612733e+000	1.799323e-001
4.889142857142844e-005	-3.596560e+000	1.462735e-001
4.918857142857130e-005	-3.580309e+000	1.128337e-001
4.948571428571416e-005	-3.563980e+000	7.961291e-002
4.978285714285702e-005	-3.547573e+000	4.661117e-002
5.007999999999987e-005	-3.531088e+000	1.382847e-002
5.023999999999979e-005	-3.522180e+000	-3.675291e-003
5.055999999999984e-005	-3.504297e+000	-3.845599e-002
5.100000000000005e-005	-3.479564e+000	-8.598148e-002
5.115428571428575e-005	-3.470852e+000	-1.024344e-001
5.130857142857144e-005	-3.462119e+000	-1.188231e-001
5.146285714285714e-005	-3.453366e+000	-1.351476e-001
5.161714285714283e-005	-3.444593e+000	-1.514079e-001
5.177142857142853e-005	-3.435800e+000	-1.676040e-001
5.192571428571422e-005	-3.426986e+000	-1.837360e-001
5.207999999999992e-005	-3.418153e+000	-1.998038e-001
5.235428571428565e-005	-3.402398e+000	-2.280987e-001
5.262857142857138e-005	-3.386581e+000	-2.561346e-001
5.290285714285710e-005	-3.370702e+000	-2.839115e-001
5.317714285714283e-005	-3.354760e+000	-3.114293e-001
5.345142857142856e-005	-3.338755e+000	-3.386881e-001
5.372571428571429e-005	-3.322689e+000	-3.656879e-001
5.400000000000001e-005	-3.306559e+000	-3.924287e-001
5.436571428568434e-005	-3.284957e+000	-4.276128e-001
5.473142857136867e-005	-3.263249e+000	-4.622484e-001
5.509714285705299e-005	-3.241434e+000	-4.963354e-001
5.546285714273732e-005	-3.219512e+000	-5.298739e-001
5.582857142842165e-005	-3.197484e+000	-5.628638e-001
5.619428571410598e-005	-3.175349e+000	-5.953052e-001
5.655999999979030e-005	-3.153108e+000	-6.271981e-001
5.719199999992819e-005	-3.114430e+000	-6.811002e-001
5.799999999999989e-005	-3.064535e+000	-7.473383e-001
5.842857142857135e-005	-3.037866e+000	-7.812395e-001
5.885714285714280e-005	-3.011063e+000	-8.142733e-001
5.928571428571425e-005	-2.984125e+000	-8.464399e-001
5.971428571428571e-005	-2.957052e+000	-8.777391e-001
6.014285714285717e-005	-2.929845e+000	-9.081711e-001
6.057142857142862e-005	-2.902503e+000	-9.377357e-001
6.100000000000007e-005	-2.875026e+000	-9.664330e-001
6.128571428571434e-005	-2.856637e+000	-9.849831e-001
6.157142857142860e-005	-2.838192e+000	-1.003129e+000
6.185714285714286e-005	-2.819689e+000	-1.020872e+000
6.214285714285711e-005	-2.801130e+000	-1.038211e+000
6.242857142857138e-005	-2.782515e+000	-1.055146e+000
6.271428571428564e-005	-2.763843e+000	-1.071677e+000
6.299999999999991e-005	-2.745114e+000	-1.087805e+000
6.400000000000004e-005	-2.679134e+000	-1.140750e+000
6.499999999999995e-005	-2.612493e+000	-1.188417e+000
6.599999999999987e-005	-2.545207e+000	-1.230757e+000
6.615202726281698e-005	-2.534922e+000	-1.236645e+000
6.630405452563408e-005	-2.524623e+000	-1.242434e+000
6.645608178845119e-005	-2.514310e+000	-1.248124e+000
6.660810905126828e-005	-2.503982e+000	-1.253713e+000
6.676013631408539e-005	-2.493640e+000	-1.259203e+000
6.691216357690250e-005	-2.483284e+000	-1.264593e+000
6.706419083971960e-005	-2.472913e+000	-1.269883e+000
6.799999999999992e-005	-2.408768e+000	-1.299270e+000
6.900000000000005e-005	-2.339649e+000	-1.325412e+000
6.999999999999997e-005	-2.269953e+000	-1.346154e+000
7.099999999999988e-005	-2.199696e+000	-1.361504e+000
7.200000000000002e-005	-2.128896e+000	-1.371526e+000
7.218458006151919e-005	-2.115770e+000	-1.372779e+000
7.236916012303836e-005	-2.102626e+000	-1.373855e+000
7.255374018455754e-005	-2.089465e+000	-1.374752e+000
7.273832024607669e-005	-2.076286e+000	-1.375471e+000
7.292290030759587e-005	-2.063089e+000	-1.376013e+000
7.310748036911504e-005	-2.049876e+000	-1.376377e+000
7.329206043063421e-005	-2.036644e+000	-1.376563e+000
7.407788278150250e-005	-1.980124e+000	-1.375543e+000
7.423631648066013e-005	-1.968692e+000	-1.374893e+000
7.439475017981777e-005	-1.957248e+000	-1.374130e+000
7.455318387897540e-005	-1.945791e+000	-1.373254e+000
7.471161757813304e-005	-1.934323e+000	-1.372265e+000
7.487005127729068e-005	-1.922843e+000	-1.371163e+000
7.502848497644831e-005	-1.911350e+000	-1.369948e+000
7.518691867560595e-005	-1.899846e+000	-1.368619e+000
7.545732343169918e-005	-1.880183e+000	-1.365982e+000
7.572772818779242e-005	-1.860488e+000	-1.362995e+000
7.599813294388565e-005	-1.840759e+000	-1.359659e+000
7.626853769997887e-005	-1.820997e+000	-1.355973e+000
7.653894245607211e-005	-1.801202e+000	-1.351938e+000
7.680934721216534e-005	-1.781374e+000	-1.347553e+000
7.707975196825857e-005	-1.761513e+000	-1.342819e+000
7.736635208162102e-005	-1.740428e+000	-1.337378e+000
7.765295219498346e-005	-1.719309e+000	-1.331570e+000
7.793955230834591e-005	-1.698155e+000	-1.325396e+000
7.822615242170835e-005	-1.676968e+000	-1.318854e+000
7.851275253507079e-005	-1.655746e+000	-1.311946e+000
7.879935264843323e-005	-1.634489e+000	-1.304671e+000
7.908595276179568e-005	-1.613199e+000	-1.297029e+000
7.936724661976046e-005	-1.592271e+000	-1.289126e+000
7.964854047772526e-005	-1.571313e+000	-1.280899e+000
7.992983433569004e-005	-1.550325e+000	-1.272348e+000
8.021112819365484e-005	-1.529307e+000	-1.263472e+000
8.049242205161962e-005	-1.508258e+000	-1.254273e+000
8.077371590958442e-005	-1.487180e+000	-1.244749e+000
8.105500976754920e-005	-1.466072e+000	-1.234902e+000
8.134292444396545e-005	-1.444437e+000	-1.224434e+000
8.163083912038169e-005	-1.422773e+000	-1.213658e+000
8.191875379679794e-005	-1.401082e+000	-1.202574e+000
8.220666847321419e-005	-1.379361e+000	-1.191181e+000
8.249458314963045e-005	-1.357613e+000	-1.179480e+000
8.278249782604668e-005	-1.335836e+000	-1.167470e+000
8.307041250246294e-005	-1.314030e+000	-1.155151e+000
8.399999999999987e-005	-1.243449e+000	-1.113348e+000
8.428571428571416e-005	-1.221701e+000	-1.099858e+000
8.457142857142846e-005	-1.199929e+000	-1.086119e+000
8.485714285714275e-005	-1.178133e+000	-1.072130e+000
8.514285714285705e-005	-1.156314e+000	-1.057892e+000
8.542857142857134e-005	-1.134472e+000	-1.043406e+000
8.571428571428563e-005	-1.112606e+000	-1.028670e+000
8.599999999999992e-005	-1.090716e+000	-1.013685e+000
8.700000000000006e-005	-1.013937e+000	-9.593627e-001
8.799999999999997e-005	-9.369066e-001	-9.023783e-001
8.899999999999989e-005	-8.596455e-001	-8.429803e-001
9.000000000000002e-005	-7.821723e-001	-7.814414e-001
9.109450606103369e-005	-6.971570e-001	-7.119319e-001
9.136671948088602e-005	-6.759789e-001	-6.943157e-001
9.163893290073834e-005	-6.547895e-001	-6.766046e-001
9.191114632059068e-005	-6.335887e-001	-6.587988e-001
9.218335974044300e-005	-6.123765e-001	-6.408980e-001
9.245557316029533e-005	-5.911529e-001	-6.229025e-001
9.272778658014765e-005	-5.699179e-001	-6.048121e-001
9.299999999999998e-005	-5.486715e-001	-5.866268e-001
9.315668202949977e-005	-5.364383e-001	-5.761129e-001
9.331336405899956e-005	-5.242019e-001	-5.655794e-001
9.347004608849935e-005	-5.119625e-001	-5.550264e-001
9.362672811799914e-005	-4.997200e-001	-5.444539e-001
9.378341014749892e-005	-4.874745e-001	-5.338618e-001
9.394009217699871e-005	-4.752258e-001	-5.232501e-001
9.409677420649850e-005	-4.629741e-001	-5.126190e-001
9.500000000000003e-005	-3.922955e-001	-4.509730e-001
9.606193549215893e-005	-3.090976e-001	-3.779639e-001
9.635012719755960e-005	-2.865022e-001	-3.580769e-001
9.663831890296027e-005	-2.639020e-001	-3.381932e-001
9.692651060836093e-005	-2.412971e-001	-3.183127e-001
9.721470231376160e-005	-2.186874e-001	-2.984356e-001
9.750289401916227e-005	-1.960731e-001	-2.785617e-001
9.779108572456293e-005	-1.734541e-001	-2.586911e-001
9.807927742996360e-005	-1.508303e-001	-2.388238e-001
9.906342194397079e-005	-7.355601e-002	-1.712644e-001
1.000000000000001e-004	-7.889136e-012	-1.074690e-001
1.000000010000000e-004	7.853192e-008	-1.074689e-001
1.000000030000000e-004	2.356116e-007	-1.074688e-001
1.000000070000000e-004	5.497708e-007	-1.074685e-001
1.000000100000000e-004	7.853903e-007	-1.074683e-001
1.000000101686726e-004	7.986378e-007	-1.074683e-001
1.000000105060180e-004	8.251328e-007	-1.074683e-001
1.000000111807088e-004	8.781229e-007	-1.074682e-001
1.000000125300901e-004	9.841031e-007	-1.074681e-001
1.000000152288530e-004	1.196063e-006	-1.074679e-001
1.000000206263785e-004	1.619984e-006	-1.074676e-001
1.000000314214297e-004	2.467825e-006	-1.074668e-001
1.000000466970486e-004	3.667570e-006	-1.074658e-001
1.000000614985528e-004	4.830077e-006	-1.074648e-001
1.000000789396244e-004	6.199896e-006	-1.074636e-001
1.000001006141163e-004	7.902207e-006	-1.074622e-001
1.000001146633817e-004	9.005633e-006	-1.074612e-001
1.000001248250202e-004	9.803726e-006	-1.074605e-001
1.000001346743334e-004	1.057729e-005	-1.074599e-001
1.000001445793798e-004	1.135523e-005	-1.074592e-001
1.000001513811705e-004	1.188944e-005	-1.074587e-001
1.000001582620652e-004	1.242987e-005	-1.074582e-001
1.000001647616414e-004	1.294034e-005	-1.074578e-001
1.000001706314977e-004	1.340136e-005	-1.074574e-001
1.000001823712104e-004	1.432339e-005	-1.074566e-001
1.000002043974621e-004	1.605333e-005	-1.074551e-001
1.000002251556234e-004	1.768367e-005	-1.074537e-001
1.000002432127440e-004	1.910188e-005	-1.074525e-001
1.000002611483474e-004	2.051054e-005	-1.074513e-001
1.000002791831103e-004	2.192698e-005	-1.074501e-001
1.000002982672154e-004	2.342584e-005	-1.074488e-001
1.000003194637437e-004	2.509062e-005	-1.074473e-001
1.000003610117227e-004	2.835379e-005	-1.074445e-001
1.000003965812670e-004	3.114741e-005	-1.074421e-001
1.000004216950806e-004	3.311985e-005	-1.074404e-001
1.000004451551253e-004	3.496240e-005	-1.074388e-001
1.000004676831043e-004	3.673174e-005	-1.074373e-001
1.000005127390624e-004	4.027042e-005	-1.074342e-001
1.000006028509784e-004	4.734780e-005	-1.074281e-001
1.000006816377884e-004	5.353570e-005	-1.074228e-001
1.000007492745064e-004	5.884787e-005	-1.074182e-001
1.000008298023289e-004	6.517251e-005	-1.074127e-001
1.000009107749553e-004	7.153209e-005	-1.074072e-001
1.000010195687719e-004	8.007674e-005	-1.073999e-001
1.000011817203998e-004	9.281209e-005	-1.073889e-001
1.000013773733541e-004	1.081786e-004	-1.073756e-001
1.000015863463200e-004	1.245913e-004	-1.073615e-001
1.000019337117958e-004	1.518734e-004	-1.073379e-001
1.000022638301733e-004	1.778008e-004	-1.073155e-001
1.000027438861706e-004	2.155043e-004	-1.072830e-001
1.000032488199373e-004	2.551617e-004	-1.072488e-001
1.000038908646936e-004	3.055878e-004	-1.072053e-001
1.000046283846211e-004	3.635125e-004	-1.071553e-001
1.000057071553317e-004	4.482389e-004	-1.070822e-001
1.000069373882154e-004	5.448612e-004	-1.069988e-001
1.000083017969986e-004	6.520216e-004	-1.069063e-001
1.000096036329842e-004	7.542676e-004	-1.068181e-001
1.000108270041520e-004	8.503509e-004	-1.067352e-001
1.000121102446728e-004	9.511364e-004	-1.066482e-001
1.000136806094437e-004	1.074473e-003	-1.065418e-001
1.000163547706550e-004	1.284501e-003	-1.063606e-001
1.000202760797820e-004	1.592480e-003	-1.060949e-001
1.000269973485625e-004	2.120367e-003	-1.056395e-001
1.000384749780120e-004	3.021817e-003	-1.048619e-001
1.000524067832325e-004	4.116019e-003	-1.039181e-001
1.000655101401462e-004	5.145153e-003	-1.030306e-001
1.000798201314962e-004	6.269057e-003	-1.020616e-001
1.000939955916624e-004	7.382394e-003	-1.011018e-001
1.001089069061654e-004	8.553525e-003	-1.000924e-001
1.001235816337233e-004	9.706073e-003	-9.909920e-002
1.001391451459532e-004	1.092843e-002	-9.804602e-002
1.001558944823558e-004	1.224391e-002	-9.691281e-002
1.001686881497974e-004	1.324872e-002	-9.604738e-002
1.001795464648744e-004	1.410153e-002	-9.531299e-002
1.001924670672207e-004	1.511631e-002	-9.443925e-002
1.002043473897721e-004	1.604938e-002	-9.363598e-002
1.002177949652591e-004	1.710554e-002	-9.272689e-002
1.002308775545481e-004	1.813304e-002	-9.184263e-002
1.002454241452652e-004	1.927552e-002	-9.085958e-002
1.002598207065170e-004	2.040621e-002	-8.988687e-002
1.002757839558988e-004	2.165995e-002	-8.880850e-002
1.002928113453762e-004	2.299727e-002	-8.765849e-002
1.003098393234749e-004	2.433463e-002	-8.650866e-002
1.003222687569055e-004	2.531082e-002	-8.566952e-002
1.003348978553522e-004	2.630270e-002	-8.481706e-002
1.003500039846155e-004	2.748911e-002	-8.379758e-002
1.003645237823954e-004	2.862947e-002	-8.281786e-002
1.003813329442649e-004	2.994964e-002	-8.168391e-002
1.003989208007334e-004	3.133096e-002	-8.049768e-002
1.004147762979008e-004	3.257622e-002	-7.942853e-002
1.004303625474973e-004	3.380034e-002	-7.837777e-002
1.004475509920936e-004	3.515028e-002	-7.721923e-002
1.004584544261437e-004	3.600661e-002	-7.648444e-002
1.004682713226955e-004	3.677761e-002	-7.582299e-002
1.004906375652662e-004	3.853420e-002	-7.431632e-002
1.005079341159701e-004	3.989263e-002	-7.315147e-002
1.005252306666741e-004	4.125105e-002	-7.198690e-002
1.005425272173781e-004	4.260947e-002	-7.082261e-002
1.005598237680821e-004	4.396789e-002	-6.965859e-002
1.005771203187861e-004	4.532630e-002	-6.849486e-002
1.005944168694901e-004	4.668471e-002	-6.733140e-002
1.006117134201940e-004	4.804312e-002	-6.616823e-002
1.009330322184201e-004	7.327756e-002	-4.461434e-002
1.010000000000000e-004	7.853658e-002	-4.013408e-002
1.010121489951697e-004	7.949065e-002	-3.932212e-002
1.010364469855090e-004	8.139876e-002	-3.769865e-002
1.013766188502608e-004	1.081110e-001	-1.505563e-002
1.019999999999999e-004	1.570538e-001	2.614971e-002
1.022910221361740e-004	1.798988e-001	4.520848e-002
1.025820442723481e-004	2.027389e-001	6.414172e-002
1.028730664085222e-004	2.255741e-001	8.294941e-002
1.031640885446963e-004	2.484042e-001	1.016316e-001
1.034551106808704e-004	2.712294e-001	1.201882e-001
1.037461328170445e-004	2.940497e-001	1.386193e-001
1.040371549532186e-004	3.168649e-001	1.569248e-001
1.050594479251501e-004	3.969499e-001	2.199217e-001
1.060000000000000e-004	4.705416e-001	2.760692e-001
1.069999999999999e-004	5.486715e-001	3.336453e-001
1.080000000000000e-004	6.266662e-001	3.888620e-001
1.089999999999999e-004	7.045062e-001	4.415371e-001
1.100000000000001e-004	7.821723e-001	4.914907e-001
1.101695724289552e-004	7.953240e-001	4.996523e-001
1.103391448579103e-004	8.084697e-001	5.077379e-001
1.105087172868655e-004	8.216096e-001	5.157475e-001
1.106782897158206e-004	8.347437e-001	5.236810e-001
1.108478621447757e-004	8.478718e-001	5.315384e-001
1.110174345737309e-004	8.609941e-001	5.393198e-001
1.111870070026860e-004	8.741106e-001	5.470251e-001
1.119999999999999e-004	9.369066e-001	5.826534e-001
1.130000000000000e-004	1.013937e+000	6.235754e-001
1.140000000000000e-004	1.090716e+000	6.612422e-001
1.142954340905707e-004	1.113350e+000	6.717127e-001
1.145908681811416e-004	1.135959e+000	6.818893e-001
1.148863022717123e-004	1.158542e+000	6.917719e-001
1.151817363622831e-004	1.181101e+000	7.013606e-001
1.154771704528539e-004	1.203634e+000	7.106553e-001
1.157726045434247e-004	1.226142e+000	7.196561e-001
1.160680386339955e-004	1.248625e+000	7.283629e-001
