time	V(vin)	V(vout)
0.000000000000000e+000	4.045085e+000	-2.798970e+000
4.704797628873696e-007	4.066697e+000	-2.801731e+000
9.409595257747392e-007	4.088083e+000	-2.804405e+000
1.411439288662109e-006	4.109245e+000	-2.806995e+000
1.881919051549478e-006	4.130182e+000	-2.809499e+000
2.352398814436848e-006	4.150894e+000	-2.811918e+000
2.822878577324218e-006	4.171380e+000	-2.814251e+000
3.293358340211586e-006	4.191642e+000	-2.816499e+000
4.074787696152623e-006	4.224784e+000	-2.820042e+000
4.349818025273667e-006	4.236298e+000	-2.821227e+000
4.624848354394711e-006	4.247732e+000	-2.822382e+000
4.899878683515754e-006	4.259087e+000	-2.823507e+000
5.174909012636798e-006	4.270362e+000	-2.824604e+000
5.449939341757842e-006	4.281558e+000	-2.825671e+000
5.724969670878886e-006	4.292674e+000	-2.826709e+000
5.999999999999929e-006	4.303710e+000	-2.827717e+000
6.294100152954449e-006	4.315423e+000	-2.828755e+000
6.588200305908968e-006	4.327043e+000	-2.829761e+000
6.882300458863488e-006	4.338570e+000	-2.830734e+000
7.176400611818008e-006	4.350005e+000	-2.831675e+000
7.470500764772528e-006	4.361347e+000	-2.832583e+000
7.764600917727047e-006	4.372596e+000	-2.833459e+000
8.058701070681566e-006	4.383753e+000	-2.834302e+000
8.999999999999894e-006	4.418828e+000	-2.836776e+000
1.000000000000003e-005	4.455033e+000	-2.839047e+000
1.026664443850566e-005	4.464502e+000	-2.839590e+000
1.053328887701130e-005	4.473892e+000	-2.840111e+000
1.079993331551693e-005	4.483203e+000	-2.840608e+000
1.106657775402257e-005	4.492436e+000	-2.841082e+000
1.133322219252820e-005	4.501590e+000	-2.841533e+000
1.159986663103384e-005	4.510665e+000	-2.841962e+000
1.186651106953947e-005	4.519661e+000	-2.842367e+000
1.227728354225282e-005	4.533365e+000	-2.842947e+000
1.299999999999999e-005	4.557016e+000	-2.843856e+000
1.399999999999991e-005	4.588773e+000	-2.844867e+000
1.500000000000004e-005	4.619398e+000	-2.845630e+000
1.599999999999996e-005	4.648882e+000	-2.846176e+000
1.705633248408637e-005	4.678782e+000	-2.846557e+000
1.740665045967989e-005	4.688414e+000	-2.846641e+000
1.775696843527342e-005	4.697904e+000	-2.846715e+000
1.810728641086694e-005	4.707252e+000	-2.846778e+000
1.845760438646046e-005	4.716456e+000	-2.846831e+000
1.880792236205398e-005	4.725518e+000	-2.846872e+000
1.915824033764750e-005	4.734437e+000	-2.846903e+000
1.950855831324102e-005	4.743214e+000	-2.846923e+000
2.000001000000001e-005	4.755283e+000	-2.846950e+000
2.000001560000008e-005	4.755283e+000	-2.846950e+000
2.000001999999997e-005	4.755283e+000	-2.846950e+000
2.002042868573228e-005	4.755778e+000	-2.846951e+000
2.004083737146458e-005	4.756273e+000	-2.846952e+000
2.006124605719688e-005	4.756767e+000	-2.846953e+000
2.008165474292919e-005	4.757261e+000	-2.846954e+000
2.010206342866149e-005	4.757754e+000	-2.846955e+000
2.012247211439379e-005	4.758246e+000	-2.846956e+000
2.014288080012610e-005	4.758739e+000	-2.846957e+000
2.014651468735433e-005	4.758826e+000	-2.846957e+000
2.014772399665612e-005	4.758855e+000	-2.846957e+000
2.014825765535061e-005	4.758868e+000	-2.846958e+000
2.014867524304182e-005	4.758878e+000	-2.846958e+000
2.014887875336825e-005	4.758883e+000	-2.846958e+000
2.014911899404543e-005	4.758889e+000	-2.846958e+000
2.014934582060925e-005	4.758894e+000	-2.846958e+000
2.015038340597128e-005	4.758919e+000	-2.846958e+000
2.015453374741918e-005	4.759019e+000	-2.846958e+000
2.016006753601646e-005	4.759152e+000	-2.846958e+000
2.017113511321102e-005	4.759419e+000	-2.846959e+000
2.018557218131018e-005	4.759766e+000	-2.846959e+000
2.019999804837944e-005	4.760113e+000	-2.846960e+000
2.021688714414502e-005	4.760519e+000	-2.846961e+000
2.023665661827481e-005	4.760993e+000	-2.846962e+000
2.026715462453738e-005	4.761724e+000	-2.846963e+000
2.028939963117488e-005	4.762257e+000	-2.846964e+000
2.031467437425935e-005	4.762862e+000	-2.846966e+000
2.034561418086628e-005	4.763600e+000	-2.846967e+000
2.038053731560582e-005	4.764433e+000	-2.846969e+000
2.043016370206394e-005	4.765614e+000	-2.846971e+000
2.050267958080194e-005	4.767334e+000	-2.846975e+000
2.058594392851222e-005	4.769302e+000	-2.846979e+000
2.069182338153308e-005	4.771792e+000	-2.846985e+000
2.090358228757456e-005	4.776733e+000	-2.846997e+000
2.099999999999997e-005	4.778965e+000	-2.847003e+000
2.107135189409210e-005	4.780610e+000	-2.847007e+000
2.116648775288147e-005	4.782794e+000	-2.847014e+000
2.135675947046042e-005	4.787129e+000	-2.847029e+000
2.173730290561831e-005	4.795671e+000	-2.847064e+000
2.216531351772327e-005	4.805075e+000	-2.847114e+000
2.243723611651516e-005	4.810936e+000	-2.847154e+000
2.270915871530705e-005	4.816710e+000	-2.847204e+000
2.298108131409894e-005	4.822395e+000	-2.847265e+000
2.325300391289083e-005	4.827993e+000	-2.847337e+000
2.352492651168272e-005	4.833502e+000	-2.847418e+000
2.379684911047461e-005	4.838923e+000	-2.847510e+000
2.406877170926650e-005	4.844256e+000	-2.847613e+000
2.443268925294664e-005	4.851256e+000	-2.847771e+000
2.479660679662678e-005	4.858096e+000	-2.847965e+000
2.516052434030693e-005	4.864778e+000	-2.848195e+000
2.552444188398707e-005	4.871300e+000	-2.848461e+000
2.588835942766721e-005	4.877663e+000	-2.848764e+000
2.625227697134735e-005	4.883867e+000	-2.849103e+000
2.661619451502749e-005	4.889912e+000	-2.849478e+000
2.699999999999990e-005	4.896114e+000	-2.849914e+000
2.729821913843065e-005	4.900810e+000	-2.850297e+000
2.759643827686141e-005	4.905399e+000	-2.850717e+000
2.789465741529216e-005	4.909879e+000	-2.851174e+000
2.819287655372291e-005	4.914252e+000	-2.851667e+000
2.849109569215367e-005	4.918517e+000	-2.852198e+000
2.878931483058443e-005	4.922675e+000	-2.852765e+000
2.908753396901518e-005	4.926724e+000	-2.853370e+000
2.936074340201301e-005	4.930339e+000	-2.853967e+000
2.963395283501084e-005	4.933863e+000	-2.854604e+000
2.990716226800867e-005	4.937296e+000	-2.855279e+000
3.018037170100650e-005	4.940638e+000	-2.855994e+000
3.045358113400433e-005	4.943889e+000	-2.856747e+000
3.072679056700217e-005	4.947049e+000	-2.857540e+000
3.100000000000000e-005	4.950118e+000	-2.858371e+000
3.199999999999991e-005	4.960574e+000	-2.861831e+000
3.300000000000004e-005	4.969805e+000	-2.865947e+000
3.399999999999996e-005	4.977810e+000	-2.870776e+000
3.499999999999988e-005	4.984587e+000	-2.876376e+000
3.529344406088403e-005	4.986342e+000	-2.878178e+000
3.558688812176818e-005	4.987992e+000	-2.880054e+000
3.588033218265233e-005	4.989535e+000	-2.882004e+000
3.617377624353648e-005	4.990972e+000	-2.884027e+000
3.646722030442064e-005	4.992303e+000	-2.886123e+000
3.676066436530479e-005	4.993529e+000	-2.888294e+000
3.705410842618894e-005	4.994648e+000	-2.890538e+000
3.800000000000006e-005	4.997533e+000	-2.898357e+000
3.899999999999997e-005	4.999383e+000	-2.907589e+000
3.929776454869229e-005	4.999696e+000	-2.910539e+000
3.959552909738462e-005	4.999899e+000	-2.913584e+000
3.989329364607694e-005	4.999993e+000	-2.916722e+000
4.019105819476926e-005	4.999978e+000	-2.919955e+000
4.048882274346157e-005	4.999853e+000	-2.923281e+000
4.078658729215389e-005	4.999618e+000	-2.926702e+000
4.108435184084621e-005	4.999275e+000	-2.930216e+000
4.136572803188843e-005	4.998849e+000	-2.933643e+000
4.164710422293064e-005	4.998327e+000	-2.937159e+000
4.192848041397285e-005	4.997706e+000	-2.940766e+000
4.220985660501505e-005	4.996988e+000	-2.944462e+000
4.249123279605726e-005	4.996172e+000	-2.948249e+000
4.277260898709947e-005	4.995259e+000	-2.952125e+000
4.305398517814169e-005	4.994248e+000	-2.956091e+000
4.334164217147823e-005	4.993113e+000	-2.960262e+000
4.362929916481477e-005	4.991877e+000	-2.964533e+000
4.391695615815132e-005	4.990539e+000	-2.968904e+000
4.420461315148786e-005	4.989099e+000	-2.973374e+000
4.449227014482441e-005	4.987557e+000	-2.977945e+000
4.477992713816095e-005	4.985913e+000	-2.982616e+000
4.506758413149749e-005	4.984168e+000	-2.987387e+000
4.535600178247170e-005	4.982315e+000	-2.992291e+000
4.564441943344591e-005	4.980360e+000	-2.997300e+000
4.593283708442012e-005	4.978303e+000	-3.002416e+000
4.622125473539433e-005	4.976144e+000	-3.007638e+000
4.650967238636854e-005	4.973883e+000	-3.012966e+000
4.679809003734274e-005	4.971520e+000	-3.018400e+000
4.708650768831695e-005	4.969055e+000	-3.023940e+000
4.736760309299086e-005	4.966554e+000	-3.029459e+000
4.764869849766477e-005	4.963956e+000	-3.035082e+000
4.792979390233868e-005	4.961262e+000	-3.040808e+000
4.821088930701259e-005	4.958471e+000	-3.046636e+000
4.849198471168650e-005	4.955583e+000	-3.052567e+000
4.877308011636041e-005	4.952598e+000	-3.058601e+000
4.905417552103432e-005	4.949517e+000	-3.064737e+000
4.999999999999991e-005	4.938442e+000	-3.086204e+000
5.106793081308169e-005	4.924626e+000	-3.111918e+000
5.199999999999996e-005	4.911436e+000	-3.135624e+000
5.299999999999988e-005	4.896114e+000	-3.162383e+000
5.400000000000001e-005	4.879584e+000	-3.190506e+000
5.499999999999993e-005	4.861850e+000	-3.219980e+000
5.600000000000006e-005	4.842916e+000	-3.250789e+000
5.699999999999998e-005	4.822787e+000	-3.282916e+000
5.715069645899113e-005	4.819651e+000	-3.287889e+000
5.730139291798228e-005	4.816487e+000	-3.292884e+000
5.745208937697342e-005	4.813296e+000	-3.297903e+000
5.760278583596457e-005	4.810079e+000	-3.302944e+000
5.775348229495572e-005	4.806834e+000	-3.308008e+000
5.790417875394687e-005	4.803563e+000	-3.313095e+000
5.805487521293802e-005	4.800264e+000	-3.318205e+000
5.836234438336553e-005	4.793451e+000	-3.328764e+000
5.866981355379304e-005	4.786526e+000	-3.339437e+000
5.897728272422054e-005	4.779489e+000	-3.350223e+000
5.928475189464805e-005	4.772342e+000	-3.361122e+000
5.959222106507556e-005	4.765082e+000	-3.372135e+000
5.989969023550306e-005	4.757712e+000	-3.383261e+000
6.020715940593057e-005	4.750230e+000	-3.394501e+000
6.100000000000007e-005	4.730427e+000	-3.423978e+000
6.115548400188534e-005	4.726457e+000	-3.429857e+000
6.131096800377061e-005	4.722459e+000	-3.435760e+000
6.146645200565588e-005	4.718433e+000	-3.441686e+000
6.162193600754114e-005	4.714379e+000	-3.447635e+000
6.177742000942641e-005	4.710297e+000	-3.453607e+000
6.193290401131168e-005	4.706186e+000	-3.459603e+000
6.208838801319695e-005	4.702048e+000	-3.465622e+000
6.405568332103011e-005	4.647271e+000	-3.544061e+000
6.461915713231152e-005	4.630758e+000	-3.567270e+000
6.518263094359292e-005	4.613886e+000	-3.590736e+000
6.574610475487432e-005	4.596655e+000	-3.614458e+000
6.630957856615571e-005	4.579064e+000	-3.638438e+000
6.687305237743711e-005	4.561114e+000	-3.662674e+000
6.743652618871852e-005	4.542804e+000	-3.687168e+000
6.799999999999992e-005	4.524135e+000	-3.711918e+000
6.831006125349808e-005	4.513712e+000	-3.725624e+000
6.862012250699625e-005	4.503183e+000	-3.739383e+000
6.893018376049442e-005	4.492548e+000	-3.753194e+000
6.924024501399260e-005	4.481805e+000	-3.767059e+000
6.955030626749076e-005	4.470957e+000	-3.780977e+000
6.986036752098893e-005	4.460001e+000	-3.794947e+000
7.017042877448709e-005	4.448940e+000	-3.808970e+000
7.099999999999988e-005	4.418828e+000	-3.846691e+000
7.128571428571417e-005	4.408283e+000	-3.859758e+000
7.157142857142846e-005	4.397649e+000	-3.872847e+000
7.185714285714276e-005	4.386928e+000	-3.885959e+000
7.214285714285706e-005	4.376118e+000	-3.899094e+000
7.242857142857135e-005	4.365219e+000	-3.912251e+000
7.271428571428564e-005	4.354233e+000	-3.925431e+000
7.299999999999993e-005	4.343158e+000	-3.938633e+000
7.400000000000006e-005	4.303710e+000	-3.984938e+000
7.499999999999998e-005	4.263201e+000	-4.031327e+000
7.599999999999990e-005	4.221640e+000	-4.077693e+000
7.700000000000003e-005	4.179037e+000	-4.123927e+000
7.717460099116969e-005	4.171492e+000	-4.131976e+000
7.734920198233936e-005	4.163916e+000	-4.140017e+000
7.752380297350902e-005	4.156309e+000	-4.148048e+000
7.769840396467870e-005	4.148671e+000	-4.156071e+000
7.787300495584836e-005	4.141001e+000	-4.164084e+000
7.804760594701803e-005	4.133300e+000	-4.172088e+000
7.822220693818769e-005	4.125568e+000	-4.180084e+000
7.905925518351693e-005	4.088071e+000	-4.218232e+000
7.999999999999999e-005	4.045085e+000	-4.260698e+000
8.099999999999991e-005	3.998423e+000	-4.305260e+000
8.200000000000004e-005	3.950775e+000	-4.349114e+000
8.299999999999996e-005	3.902152e+000	-4.392142e+000
8.506160261453335e-005	3.798886e+000	-4.477727e+000
8.541736787334565e-005	3.780658e+000	-4.492029e+000
8.577313313215793e-005	3.762313e+000	-4.506160e+000
8.612889839097023e-005	3.743852e+000	-4.520120e+000
8.648466364978253e-005	3.725274e+000	-4.533908e+000
8.684042890859483e-005	3.706580e+000	-4.547526e+000
8.719619416740711e-005	3.687769e+000	-4.560973e+000
8.755195942621941e-005	3.668841e+000	-4.574248e+000
8.777310807961663e-005	3.657018e+000	-4.582427e+000
8.799425673301385e-005	3.645152e+000	-4.590526e+000
8.821540538641107e-005	3.633241e+000	-4.598546e+000
8.843655403980829e-005	3.621287e+000	-4.606486e+000
8.865770269320551e-005	3.609289e+000	-4.614347e+000
8.887885134660272e-005	3.597247e+000	-4.622129e+000
8.909999999999994e-005	3.585161e+000	-4.629831e+000
8.937142857142852e-005	3.570269e+000	-4.639169e+000
8.964285714285708e-005	3.555312e+000	-4.648383e+000
8.991428571428565e-005	3.540291e+000	-4.657472e+000
9.018571428571423e-005	3.525205e+000	-4.666437e+000
9.045714285714280e-005	3.510056e+000	-4.675278e+000
9.072857142857136e-005	3.494842e+000	-4.683994e+000
9.099999999999994e-005	3.479564e+000	-4.692586e+000
9.129485714285707e-005	3.462895e+000	-4.701738e+000
9.158971428571422e-005	3.446153e+000	-4.710724e+000
9.188457142857135e-005	3.429338e+000	-4.719546e+000
9.217942857142849e-005	3.412449e+000	-4.728201e+000
9.247428571428563e-005	3.395487e+000	-4.736692e+000
9.276914285714277e-005	3.378452e+000	-4.745017e+000
9.306399999999991e-005	3.361343e+000	-4.753178e+000
9.399999999999990e-005	3.306559e+000	-4.777840e+000
9.500000000000003e-005	3.247240e+000	-4.802111e+000
9.522285714283717e-005	3.233910e+000	-4.807224e+000
9.544571428567431e-005	3.220541e+000	-4.812219e+000
9.566857142851145e-005	3.207133e+000	-4.817095e+000
9.589142857134860e-005	3.193686e+000	-4.821853e+000
9.611428571418573e-005	3.180199e+000	-4.826493e+000
9.633714285702288e-005	3.166673e+000	-4.831013e+000
9.655999999986001e-005	3.153108e+000	-4.835416e+000
9.719199999995215e-005	3.114430e+000	-4.847393e+000
9.800000000000000e-005	3.064535e+000	-4.861252e+000
9.899999999999991e-005	3.002101e+000	-4.876144e+000
1.000000000000001e-004	2.938926e+000	-4.888513e+000
1.010000000000000e-004	2.875026e+000	-4.898291e+000
1.011771429755351e-004	2.863632e+000	-4.899736e+000
1.013542859510702e-004	2.852216e+000	-4.901100e+000
1.015314289266053e-004	2.840778e+000	-4.902383e+000
1.017085719021404e-004	2.829318e+000	-4.903585e+000
1.018857148776755e-004	2.817836e+000	-4.904705e+000
1.020628578532106e-004	2.806333e+000	-4.905744e+000
1.022400008287457e-004	2.794807e+000	-4.906702e+000
1.030640002209989e-004	2.740911e+000	-4.910058e+000
1.033497137174315e-004	2.722115e+000	-4.910765e+000
1.036354272138640e-004	2.703265e+000	-4.911251e+000
1.039211407102966e-004	2.684361e+000	-4.911516e+000
1.042068542067291e-004	2.665403e+000	-4.911560e+000
1.044925677031617e-004	2.646391e+000	-4.911383e+000
1.047782811995942e-004	2.627326e+000	-4.910985e+000
1.050639946960268e-004	2.608206e+000	-4.910367e+000
1.052320636476792e-004	2.596935e+000	-4.909877e+000
1.054001325993315e-004	2.585646e+000	-4.909310e+000
1.055682015509839e-004	2.574339e+000	-4.908665e+000
1.057362705026363e-004	2.563014e+000	-4.907942e+000
1.059043394542887e-004	2.551671e+000	-4.907142e+000
1.060724084059410e-004	2.540311e+000	-4.906264e+000
1.062404773575934e-004	2.528932e+000	-4.905308e+000
1.066434012938518e-004	2.501579e+000	-4.902691e+000
1.070463252301102e-004	2.474129e+000	-4.899617e+000
1.074492491663686e-004	2.446582e+000	-4.896086e+000
1.078521731026270e-004	2.418937e+000	-4.892098e+000
1.082550970388854e-004	2.391195e+000	-4.887652e+000
1.086580209751438e-004	2.363355e+000	-4.882749e+000
1.090609449114022e-004	2.335418e+000	-4.877389e+000
1.094808099240590e-004	2.306206e+000	-4.871280e+000
1.099006749367158e-004	2.276897e+000	-4.864683e+000
1.103205399493726e-004	2.247491e+000	-4.857599e+000
1.107404049620295e-004	2.217988e+000	-4.850026e+000
1.111602699746863e-004	2.188388e+000	-4.841966e+000
1.115801349873431e-004	2.158691e+000	-4.833417e+000
1.119999999999999e-004	2.128896e+000	-4.824381e+000
1.122971259591818e-004	2.107757e+000	-4.817656e+000
1.125942519183636e-004	2.086573e+000	-4.810696e+000
1.128913778775455e-004	2.065344e+000	-4.803500e+000
1.131885038367274e-004	2.044070e+000	-4.796068e+000
1.134856297959093e-004	2.022751e+000	-4.788400e+000
1.137827557550911e-004	2.001388e+000	-4.780496e+000
1.140798817142730e-004	1.979980e+000	-4.772357e+000
1.150000000000001e-004	1.913417e+000	-4.745625e+000
1.152857142857144e-004	1.892665e+000	-4.736839e+000
1.155714285714286e-004	1.871876e+000	-4.727849e+000
1.158571428571429e-004	1.851050e+000	-4.718653e+000
1.161428571428571e-004	1.830186e+000	-4.709253e+000
1.164285714285714e-004	1.809286e+000	-4.699648e+000
1.167142857142857e-004	1.788349e+000	-4.689838e+000
1.169999999999999e-004	1.767374e+000	-4.679822e+000
1.180000000000001e-004	1.693690e+000	-4.643104e+000
1.190000000000000e-004	1.619587e+000	-4.603936e+000
1.199999999999999e-004	1.545085e+000	-4.562388e+000
1.201845219637959e-004	1.531295e+000	-4.554459e+000
1.203690439275920e-004	1.517493e+000	-4.546455e+000
1.205535658913880e-004	1.503678e+000	-4.538376e+000
1.207380878551841e-004	1.489850e+000	-4.530220e+000
1.209226098189801e-004	1.476010e+000	-4.521989e+000
1.211071317827762e-004	1.462158e+000	-4.513683e+000
1.212916537465722e-004	1.448292e+000	-4.505301e+000
1.220777743324191e-004	1.389089e+000	-4.468836e+000
1.230000000000001e-004	1.319365e+000	-4.424386e+000
1.240000000000000e-004	1.243449e+000	-4.374265e+000
1.242857142857143e-004	1.221701e+000	-4.359568e+000
1.245714285714286e-004	1.199929e+000	-4.344733e+000
1.248571428571429e-004	1.178133e+000	-4.329760e+000
1.251428571428571e-004	1.156314e+000	-4.314649e+000
1.254285714285715e-004	1.134472e+000	-4.299400e+000
1.257142857142857e-004	1.112606e+000	-4.284012e+000
1.260000000000000e-004	1.090716e+000	-4.268486e+000
1.261808362884845e-004	1.076851e+000	-4.258575e+000
1.263616725769690e-004	1.062977e+000	-4.248614e+000
1.265425088654534e-004	1.049095e+000	-4.238602e+000
1.267233451539379e-004	1.035204e+000	-4.228540e+000
1.269041814424224e-004	1.021305e+000	-4.218428e+000
1.270850177309069e-004	1.007397e+000	-4.208266e+000
1.272658540193913e-004	9.934814e-001	-4.198054e+000
1.280708944051711e-004	9.314366e-001	-4.152047e+000
1.283594444670922e-004	9.091600e-001	-4.135314e+000
1.286479945290133e-004	8.868658e-001	-4.118480e+000
1.289365445909344e-004	8.645541e-001	-4.101545e+000
1.292250946528555e-004	8.422249e-001	-4.084509e+000
1.295136447147766e-004	8.198782e-001	-4.067371e+000
1.298021947766977e-004	7.975139e-001	-4.050132e+000
1.300907448386188e-004	7.751322e-001	-4.032791e+000
1.305063527188161e-004	7.428653e-001	-4.007627e+000
1.309219605990134e-004	7.105702e-001	-3.982312e+000
1.313375684792108e-004	6.782469e-001	-3.956844e+000
1.317531763594081e-004	6.458953e-001	-3.931224e+000
1.321687842396054e-004	6.135156e-001	-3.905452e+000
1.325843921198028e-004	5.811077e-001	-3.879527e+000
1.330000000000001e-004	5.486715e-001	-3.853451e+000
1.332857142857143e-004	5.263605e-001	-3.835455e+000
1.335714285714286e-004	5.040400e-001	-3.817417e+000
1.338571428571429e-004	4.817100e-001	-3.799338e+000
1.341428571428571e-004	4.593706e-001	-3.781217e+000
1.344285714285714e-004	4.370217e-001	-3.763055e+000
1.347142857142857e-004	4.146633e-001	-3.744852e+000
1.349999999999999e-004	3.922955e-001	-3.726607e+000
1.360000000000001e-004	3.139526e-001	-3.662541e+000
1.370000000000000e-004	2.355323e-001	-3.598245e+000
1.379999999999999e-004	1.570538e-001	-3.533875e+000
1.382300362694072e-004	1.389940e-001	-3.519066e+000
1.384600725388145e-004	1.209331e-001	-3.504269e+000
1.386901088082218e-004	1.028709e-001	-3.489483e+000
1.389201450776291e-004	8.480759e-002	-3.474709e+000
1.391501813470364e-004	6.674305e-002	-3.459946e+000
1.393802176164437e-004	4.867732e-002	-3.445195e+000
